(1510588574.292627) can0 5E7#003F070100000001
(1510588574.292820) can0 5EB#003F070100000001
(1510588574.293062) can0 5E9#003F070100000001
(1510588574.415223) can0 217#000000006F020004
(1510588574.415458) can0 21B#0000000070020004
(1510588574.415696) can0 219#00C07F006F020004
(1510588574.488147) can0 45C#0000093E00000000
(1510588574.496326) can0 42C#0060000020010000
(1510588574.496573) can0 43C#0060000020010000
(1510588574.496819) can0 44C#0060000020010000
(1510588574.506367) can0 42C#0060000020000000
(1510588574.506612) can0 43C#0060000020000000
(1510588574.506859) can0 44C#0060000020000000
(1510588574.587962) can0 45C#0000093E00000000
(1510588574.588082) can0 10C#0100
(1510588574.606413) can0 42C#0060000020000000
(1510588574.606624) can0 43C#0060000020000000
(1510588574.606871) can0 44C#0060000020000000
(1510588574.629710) can0 5E7#003F070100000001
(1510588574.687961) can0 45C#0000093E00000000
(1510588574.706382) can0 42C#0060000020000000
(1510588574.706626) can0 43C#0060000020000000
(1510588574.706873) can0 44C#0060000020000000
(1510588574.731014) can0 5E9#003F070100000001
(1510588574.752350) can0 217#000000006F020004
(1510588574.787961) can0 45C#0000093E00000000
(1510588574.788092) can0 10C#0200
(1510588574.788238) can0 547#02FF
(1510588574.806391) can0 42C#0060000020000000
(1510588574.806629) can0 43C#0060000020000000
(1510588574.806877) can0 44C#0060000020000000
(1510588574.831409) can0 5EB#003F070100000001
(1510588574.842523) can0 207#0000C0FF00040400
(1510588574.842750) can0 227#F4039D00E700ECD1
(1510588574.842990) can0 237#4641001700000000
(1510588574.843231) can0 247#007D890300002600
(1510588574.843478) can0 717#0200000000000000
(1510588574.852348) can0 217#000000007F020004
(1510588574.853905) can0 219#00C07F006F020004
(1510588574.887962) can0 45C#0000093E00000000
(1510588574.906387) can0 42C#0060000020000000
(1510588574.906631) can0 43C#0060000020000000
(1510588574.906879) can0 44C#0060000020000000
(1510588574.942510) can0 207#0000C0FF68071400
(1510588574.942733) can0 227#F4039500E100ECD1
(1510588574.942972) can0 237#4641001700000000
(1510588574.943207) can0 247#667D890300002600
(1510588574.944072) can0 209#0002800000040400
(1510588574.944307) can0 229#F503AF001301ECD1
(1510588574.944545) can0 239#4541001700000000
(1510588574.944783) can0 249#007D890300002600
(1510588574.945031) can0 719#0200000000000000
(1510588574.952316) can0 217#000000007F020004
(1510588574.953879) can0 219#00C07F0080020004
(1510588574.954120) can0 21B#00C07F0070020004
(1510588574.987959) can0 45C#0000093E00000000
(1510588574.988086) can0 10C#0300
(1510588574.988237) can0 547#03FF
(1510588574.988369) can0 549#03FF
(1510588574.988503) can0 54B#03FF
(1510588575.006391) can0 42C#0060000020000000
(1510588575.006634) can0 43C#0060000020000000
(1510588575.006882) can0 44C#0060000020000000
(1510588575.042499) can0 207#0000C0FF68071400
(1510588575.042730) can0 227#FD039800C400ECD1
(1510588575.042971) can0 237#4641001700000000
(1510588575.043204) can0 247#667D890300002600
(1510588575.043446) can0 717#040000000D090300
(1510588575.044074) can0 209#0002800068051400
(1510588575.044322) can0 20B#0000000000040400
(1510588575.044553) can0 229#FD03AE000401ECD1
(1510588575.044789) can0 22B#1B04A5001001ECD1
(1510588575.045030) can0 239#4541001700000000
(1510588575.045268) can0 23B#4541001700000000
(1510588575.045504) can0 249#667D890300002600
(1510588575.045744) can0 24B#007D890300002600
(1510588575.045993) can0 71B#0200000000000000
(1510588575.052312) can0 217#000000007F020004
(1510588575.053872) can0 219#00807F0080020004
(1510588575.054114) can0 21B#00C07F0082020004
(1510588575.087965) can0 45C#0000093E00000000
(1510588575.106426) can0 42C#0060000020000000
(1510588575.106639) can0 43C#0060000020000000
(1510588575.106885) can0 44C#0060000020000000
(1510588575.142449) can0 207#0000C0FF68071400
(1510588575.142673) can0 227#04049D00B700ECD1
(1510588575.142911) can0 237#4641001700000000
(1510588575.143144) can0 247#667D890300002600
(1510588575.143393) can0 717#0500000000000000
(1510588575.144025) can0 209#0002800068051400
(1510588575.144267) can0 20B#0000000068071400
(1510588575.144503) can0 229#FF03A800F400ECD1
(1510588575.144735) can0 22B#2604A4000C01ECD1
(1510588575.145003) can0 239#4541001700000000
(1510588575.145214) can0 23B#4541001700000000
(1510588575.145448) can0 249#667D890300002600
(1510588575.145690) can0 24B#667D890300002600
(1510588575.145930) can0 719#040000000D092D00
(1510588575.152289) can0 217#000000007F020004
(1510588575.153830) can0 219#00807F0080020004
(1510588575.154071) can0 21B#00C07F0082020004
(1510588575.187965) can0 45C#0000093E00000000
(1510588575.188094) can0 10C#0400
(1510588575.188247) can0 547#04FF
(1510588575.188377) can0 549#04FF
(1510588575.188508) can0 54B#04FF
(1510588575.206397) can0 42C#0060000020000000
(1510588575.206640) can0 43C#0060000020000000
(1510588575.206888) can0 44C#0060000020000000
(1510588575.242432) can0 207#0000C0FF68051400
(1510588575.242662) can0 227#0904A000B300ECD1
(1510588575.242901) can0 237#4641001700000000
(1510588575.243135) can0 247#667D890300002600
(1510588575.243368) can0 717#0600353999010040
(1510588575.244028) can0 209#0002800068051400
(1510588575.244273) can0 20B#0000000068071400
(1510588575.244505) can0 229#0604AC00D600ECD1
(1510588575.244738) can0 22B#2D04AE00EF00ECD1
(1510588575.244978) can0 239#4541001700000000
(1510588575.245217) can0 23B#4541001700000000
(1510588575.245452) can0 249#667D890300002600
(1510588575.245688) can0 24B#667D890300002600
(1510588575.245935) can0 719#0500000000000000
(1510588575.246178) can0 71B#040000000D090500
(1510588575.252243) can0 217#000000007F020004
(1510588575.253834) can0 219#00407F0080020004
(1510588575.254075) can0 21B#00C07F0082020004
(1510588575.287967) can0 45C#0000093E00000000
(1510588575.306401) can0 42C#0060000020000000
(1510588575.306643) can0 43C#0060000020000000
(1510588575.306890) can0 44C#0060000020000000
(1510588575.342442) can0 207#0000C0FF68051400
(1510588575.342664) can0 227#0B04A0009600ECD1
(1510588575.342911) can0 237#4641001700000000
(1510588575.343138) can0 247#667D890300002600
(1510588575.343383) can0 717#0700000002260000
(1510588575.343994) can0 209#0002400068051400
(1510588575.344236) can0 20B#0000000068071400
(1510588575.344463) can0 229#1304B100C500ECD1
(1510588575.344694) can0 22B#3904AA00E200ECD1
(1510588575.344935) can0 239#4541001700000000
(1510588575.345181) can0 23B#4541001700000000
(1510588575.345415) can0 249#667D890300002600
(1510588575.345651) can0 24B#667D890300002600
(1510588575.345884) can0 719#0600893799010040
(1510588575.346131) can0 71B#0500000000000000
(1510588575.352249) can0 217#000000007F020004
(1510588575.353812) can0 219#00407F0080020004
(1510588575.354053) can0 21B#00C07F0082020004
(1510588575.387972) can0 45C#0000093E00000000
(1510588575.388101) can0 10C#0500
(1510588575.388253) can0 549#05FF
(1510588575.388387) can0 547#05FF
(1510588575.388524) can0 54B#05FF
(1510588575.406400) can0 42C#0060000020000000
(1510588575.406644) can0 43C#0060000020000000
(1510588575.406893) can0 44C#0060000020000000
(1510588575.442394) can0 207#0000C0FF68051400
(1510588575.442621) can0 227#12049E009100ECD1
(1510588575.442861) can0 237#4641001700000000
(1510588575.443095) can0 247#667D890300002600
(1510588575.443337) can0 717#0800000071390000
(1510588575.443966) can0 209#0002400068051400
(1510588575.444211) can0 20B#0000000068071400
(1510588575.444441) can0 229#1504AD00B200ECD1
(1510588575.444674) can0 22B#3A04AE00D400ECD1
(1510588575.444912) can0 239#4541001700000000
(1510588575.445153) can0 23B#4541001700000000
(1510588575.445388) can0 249#667D890300002600
(1510588575.445625) can0 24B#667D890300002600
(1510588575.445867) can0 719#0700000002260000
(1510588575.446101) can0 71B#0600813999010040
(1510588575.452207) can0 217#000000007F020004
(1510588575.453771) can0 219#00407F0080020004
(1510588575.454013) can0 21B#00C07F0082020004
(1510588575.487981) can0 45C#0000093E00000000
(1510588575.506403) can0 42C#0060000020000000
(1510588575.506647) can0 43C#0060000020000000
(1510588575.506895) can0 44C#0060000020000000
(1510588575.542381) can0 207#0000C0FF68051400
(1510588575.542612) can0 227#1B049E008000ECD1
(1510588575.542851) can0 237#4641001700000000
(1510588575.543088) can0 247#667D890300002600
(1510588575.543325) can0 717#0900453900000000
(1510588575.543970) can0 209#0002400068051400
(1510588575.544213) can0 20B#0000000068051400
(1510588575.544442) can0 229#1604AB00A200ECD1
(1510588575.544672) can0 22B#4804AF00BC00ECD1
(1510588575.544911) can0 239#4541001700000000
(1510588575.545151) can0 23B#4541001700000000
(1510588575.545388) can0 249#667D890300002600
(1510588575.545624) can0 24B#667D890300002600
(1510588575.545866) can0 719#08000000D9370000
(1510588575.546110) can0 71B#0700000002260000
(1510588575.552195) can0 217#000000007F020004
(1510588575.553776) can0 219#00007F0080020004
(1510588575.554017) can0 21B#00C07F0082020004
(1510588575.587976) can0 45C#0000093E00000000
(1510588575.588105) can0 10C#0600
(1510588575.588254) can0 547#06FF
(1510588575.588389) can0 549#06FF
(1510588575.588523) can0 54B#06FF
(1510588575.606443) can0 42C#0060000020000000
(1510588575.606652) can0 43C#0060000020000000
(1510588575.606899) can0 44C#0060000020000000
(1510588575.642331) can0 207#0000C0FF68051400
(1510588575.642560) can0 227#1E04A2006C00ECD1
(1510588575.642801) can0 237#4641001700000000
(1510588575.643034) can0 247#667D890300002600
(1510588575.643280) can0 717#0A00000000000000
(1510588575.643927) can0 209#0001400068051400
(1510588575.644168) can0 20B#0000C0FF68051400
(1510588575.644399) can0 229#1D04AD008900ECD1
(1510588575.644632) can0 22B#5904BE009800ECD1
(1510588575.644872) can0 239#4541001700000000
(1510588575.645112) can0 23B#4541001700000000
(1510588575.645348) can0 249#667D890300002600
(1510588575.645584) can0 24B#667D890300002600
(1510588575.645826) can0 719#0900FD3700000000
(1510588575.646068) can0 71B#080000007D390000
(1510588575.652172) can0 217#000000007F020004
(1510588575.653738) can0 219#00007F0080020004
(1510588575.653979) can0 21B#00C07F0082020004
(1510588575.687983) can0 45C#0000093E00000000
(1510588575.706408) can0 42C#0060000020000000
(1510588575.706652) can0 43C#0060000020000000
(1510588575.706900) can0 44C#0060000020000000
(1510588575.742263) can0 367#0000000000000000
(1510588575.742498) can0 207#0000C0FF68031400
(1510588575.742730) can0 227#24049F006300ECD1
(1510588575.742976) can0 237#4641001700000000
(1510588575.743208) can0 247#667D890300002600
(1510588575.743454) can0 717#0B00000000000000
(1510588575.743920) can0 209#0001400068031400
(1510588575.744173) can0 20B#0000000068051400
(1510588575.744392) can0 229#2804AD008700ECD1
(1510588575.744622) can0 22B#5704B2009900ECD1
(1510588575.744861) can0 239#4541001700000000
(1510588575.745101) can0 23B#4541001700000000
(1510588575.745337) can0 249#667D890300002600
(1510588575.745573) can0 24B#667D890300002600
(1510588575.745819) can0 719#0A00000000000000
(1510588575.746058) can0 71B#0900793900000000
(1510588575.752143) can0 217#000000007F020004
(1510588575.752390) can0 377#0000000000000000
(1510588575.753736) can0 219#00007F0080020004
(1510588575.753977) can0 21B#00C07F0082020004
(1510588575.762256) can0 347#0000000000000000
(1510588575.772251) can0 357#0000000000000000
(1510588575.782255) can0 327#0000000000000000
(1510588575.787981) can0 45C#0000093E00000000
(1510588575.788108) can0 10C#0700
(1510588575.788268) can0 549#07FF
(1510588575.788394) can0 547#07FF
(1510588575.788530) can0 54B#07FF
(1510588575.792219) can0 337#0000000000000000
(1510588575.806413) can0 42C#0060000020000000
(1510588575.806657) can0 43C#0060000020000000
(1510588575.806905) can0 44C#0060000020000000
(1510588575.842323) can0 207#0000C0FF68031400
(1510588575.842553) can0 227#2C0499005C00ECD1
(1510588575.842793) can0 237#4641001700000000
(1510588575.843027) can0 247#667D890300002600
(1510588575.843266) can0 717#0C01000404060100
(1510588575.843809) can0 369#0000000000000000
(1510588575.844052) can0 209#0001400068031400
(1510588575.844295) can0 20B#0000000068051400
(1510588575.844527) can0 229#2C04AD007700ECD1
(1510588575.844760) can0 22B#5B04B4008B00ECD1
(1510588575.844999) can0 239#4541001700000000
(1510588575.845240) can0 23B#4541001700000000
(1510588575.845477) can0 249#667D890300002600
(1510588575.845712) can0 24B#667D890300002600
(1510588575.845958) can0 719#0B00000000000000
(1510588575.846205) can0 71B#0A00000000000000
(1510588575.852146) can0 217#000000007F020004
(1510588575.853715) can0 219#00007F0080020004
(1510588575.853954) can0 21B#00C07F0082020004
(1510588575.854203) can0 379#0000000000000000
(1510588575.863815) can0 349#0000000000000000
(1510588575.873805) can0 359#0000000000000000
(1510588575.883803) can0 329#0000000000000000
(1510588575.887987) can0 45C#0000093E00000000
(1510588575.893797) can0 339#0000000000000000
(1510588575.906415) can0 42C#0060000020000000
(1510588575.906659) can0 43C#0060000020000000
(1510588575.906907) can0 44C#0060000020000000
(1510588575.942279) can0 207#0000000068031400
(1510588575.942506) can0 227#2D0498004B00ECD1
(1510588575.942751) can0 237#4641001700000000
(1510588575.942983) can0 247#667D890300002600
(1510588575.943224) can0 717#0E000002A6040000
(1510588575.943859) can0 209#0001400068031400
(1510588575.944093) can0 229#3604A8006300ECD1
(1510588575.944336) can0 20B#0000000068031400
(1510588575.944571) can0 22B#6604AF007E00ECD1
(1510588575.944810) can0 239#4541001700000000
(1510588575.945049) can0 23B#4541001700000000
(1510588575.945286) can0 249#667D890300002600
(1510588575.945521) can0 24B#667D890300002600
(1510588575.945769) can0 36B#0000000000000000
(1510588575.946008) can0 719#0C01000404060100
(1510588575.946254) can0 71B#0B00000000000000
(1510588575.952113) can0 217#000000007F020004
(1510588575.953670) can0 219#00007F0080020004
(1510588575.953912) can0 21B#00C07F0082020004
(1510588575.954160) can0 37B#0000000000000000
(1510588575.963970) can0 34B#0000000000000000
(1510588575.973973) can0 35B#0000000000000000
(1510588575.983970) can0 32B#0000000000000000
(1510588575.987987) can0 45C#0000093E00000000
(1510588575.988116) can0 10C#0800
(1510588575.988274) can0 54B#08FF
(1510588575.988401) can0 547#08FF
(1510588575.988535) can0 549#08FF
(1510588575.993949) can0 33B#0000000000000000
(1510588576.006419) can0 42C#0060000020000000
(1510588576.006663) can0 43C#0060000020000000
(1510588576.006910) can0 44C#0060000020000000
(1510588576.042263) can0 207#0000000068031400
(1510588576.042491) can0 227#320498004B00ECD1
(1510588576.042732) can0 237#4641001700000000
(1510588576.042966) can0 247#667D890300002600
(1510588576.043204) can0 717#0F00C701D00B0000
(1510588576.043867) can0 209#0001000068031400
(1510588576.044106) can0 20B#0000C0FF68031400
(1510588576.044340) can0 229#3304A6006F00ECD1
(1510588576.044574) can0 22B#6604B0007D00ECD1
(1510588576.044815) can0 239#4541001700000000
(1510588576.045054) can0 23B#4541001700000000
(1510588576.045290) can0 249#667D890300002600
(1510588576.045526) can0 24B#667D890300002600
(1510588576.045766) can0 719#0E000002A6040000
(1510588576.046006) can0 71B#0C01000404060100
(1510588576.052072) can0 217#000000007F020004
(1510588576.053672) can0 219#00C07E0080020004
(1510588576.053913) can0 21B#00C07F0082020004
(1510588576.087996) can0 45C#0000093E00000000
(1510588576.106452) can0 42C#0060000020000000
(1510588576.106682) can0 43C#0060000020000000
(1510588576.106915) can0 44C#0060000020000000
(1510588576.142253) can0 207#0000C0FF68031400
(1510588576.142482) can0 227#310498004400ECD1
(1510588576.142723) can0 237#4641001700000000
(1510588576.142954) can0 247#667D890300002600
(1510588576.143204) can0 717#1001000011000000
(1510588576.143828) can0 209#0001000068031400
(1510588576.144071) can0 20B#0000000068031400
(1510588576.144305) can0 229#3604A4003D00ECD1
(1510588576.144534) can0 22B#6C04B3006A00ECD1
(1510588576.144776) can0 239#4541001700000000
(1510588576.145018) can0 23B#4541001700000000
(1510588576.145251) can0 249#667D890300002600
(1510588576.145486) can0 24B#667D890300002600
(1510588576.145720) can0 719#0F00C601CD0B0000
(1510588576.145959) can0 71B#0E000002A6040000
(1510588576.152077) can0 217#000000007F020004
(1510588576.153651) can0 219#00C07E0080020004
(1510588576.153894) can0 21B#00C07F0083020004
(1510588576.187992) can0 45C#0000093E00000000
(1510588576.188118) can0 10C#0900
(1510588576.188277) can0 549#09FF
(1510588576.188404) can0 547#09FF
(1510588576.188542) can0 54B#09FF
(1510588576.206426) can0 42C#0060000020000000
(1510588576.206668) can0 43C#0060000020000000
(1510588576.206917) can0 44C#0060000020000000
(1510588576.242223) can0 207#0000C0FF68031400
(1510588576.242452) can0 227#410494004600ECD1
(1510588576.242691) can0 237#4641001700000000
(1510588576.242926) can0 247#667D890300002600
(1510588576.243166) can0 717#11008FFF00000202
(1510588576.243802) can0 209#0001000068031400
(1510588576.244046) can0 20B#0000000068031400
(1510588576.244280) can0 229#3704A1004800ECD1
(1510588576.244510) can0 22B#7304AD005D00ECD1
(1510588576.244749) can0 239#4541001700000000
(1510588576.244989) can0 23B#4541001700000000
(1510588576.245226) can0 249#667D890300002600
(1510588576.245462) can0 24B#667D890300002600
(1510588576.245698) can0 719#10F70F0011000000
(1510588576.245934) can0 71B#0F00C601970B0000
(1510588576.252032) can0 217#000000007F020004
(1510588576.253611) can0 219#00C07E0080020004
(1510588576.253853) can0 21B#00C07F0083020004
(1510588576.287999) can0 45C#0000093E00000000
(1510588576.306428) can0 42C#0060000020000000
(1510588576.306671) can0 43C#0060000020000000
(1510588576.306919) can0 44C#0060000020000000
(1510588576.342214) can0 207#0000C0FF68011400
(1510588576.342436) can0 227#420495004200ECD1
(1510588576.342674) can0 237#4641001700000000
(1510588576.342909) can0 247#667D890300002600
(1510588576.343148) can0 717#1240290027001300
(1510588576.343807) can0 209#0001000068011400
(1510588576.344039) can0 20B#0000C0FF68031400
(1510588576.344271) can0 229#3904A1003500ECD1
(1510588576.344507) can0 22B#7604AA005700ECD1
(1510588576.344745) can0 239#4541001700000000
(1510588576.344986) can0 23B#4541001700000000
(1510588576.345225) can0 249#667D890300002600
(1510588576.345466) can0 24B#667D890300002600
(1510588576.345700) can0 719#110086FF00000202
(1510588576.345971) can0 71B#10FF0F0013000000
(1510588576.352033) can0 217#000000007F020004
(1510588576.353610) can0 219#00C07E0080020004
(1510588576.353853) can0 21B#00C07F0083020004
(1510588576.387999) can0 45C#0000093E00000000
(1510588576.388128) can0 10C#0A00
(1510588576.388280) can0 547#0AFF
(1510588576.388412) can0 549#0AFF
(1510588576.388546) can0 54B#0AFF
(1510588576.406428) can0 42C#0060000020000000
(1510588576.406671) can0 43C#0060000020000000
(1510588576.406919) can0 44C#0060000020000000
(1510588576.442163) can0 207#0000000068011400
(1510588576.442391) can0 227#440495003400ECD1
(1510588576.442631) can0 237#4641001700000000
(1510588576.442865) can0 247#667D890300002600
(1510588576.443114) can0 717#1300000000000000
(1510588576.443765) can0 209#0001000068011400
(1510588576.444007) can0 20B#0000000068031400
(1510588576.444246) can0 229#3E049F003500ECD1
(1510588576.444474) can0 22B#7504A7004B00ECD1
(1510588576.444714) can0 239#4541001700000000
(1510588576.444954) can0 23B#4541001700000000
(1510588576.445190) can0 249#667D890300002600
(1510588576.445426) can0 24B#667D890300002600
(1510588576.445664) can0 719#123F250027001700
(1510588576.445904) can0 71B#110082FF00000202
(1510588576.451997) can0 217#000000007F020004
(1510588576.453570) can0 219#00C07E0080020004
(1510588576.453813) can0 21B#00C07F0083020004
(1510588576.488008) can0 45C#0000093E00000000
(1510588576.506431) can0 42C#0060000020000000
(1510588576.506676) can0 43C#0060000020000000
(1510588576.506923) can0 44C#0060000020000000
(1510588576.542161) can0 207#0000C0FF68011400
(1510588576.542390) can0 227#45048E003300ECD1
(1510588576.542630) can0 237#4641001700000000
(1510588576.542867) can0 247#667D890300002600
(1510588576.543102) can0 717#14000000F2FF0000
(1510588576.543778) can0 209#0001000068011400
(1510588576.544014) can0 20B#0000000068011400
(1510588576.544246) can0 229#4204A4002600ECD1
(1510588576.544476) can0 22B#8004A9005900ECD1
(1510588576.544742) can0 239#4541001700000000
(1510588576.544957) can0 23B#4541001700000000
(1510588576.545192) can0 249#667D890300002600
(1510588576.545429) can0 24B#667D890300002600
(1510588576.545675) can0 719#1300000000000000
(1510588576.545916) can0 71B#123E290027001500
(1510588576.551975) can0 217#000000007F020004
(1510588576.553569) can0 219#00C07E0080020004
(1510588576.553812) can0 21B#00C07F0083020004
(1510588576.588010) can0 45C#0000093E00000000
(1510588576.588133) can0 10C#0B00
(1510588576.588289) can0 549#0BFF
(1510588576.588421) can0 547#0BFF
(1510588576.588562) can0 54B#0BFF
(1510588576.606470) can0 42C#0060000020000000
(1510588576.606681) can0 43C#0060000020000000
(1510588576.606927) can0 44C#0060000020000000
(1510588576.642163) can0 207#0000C0FF68011400
(1510588576.642393) can0 227#4A048F001F00ECD1
(1510588576.642633) can0 237#4641001700000000
(1510588576.642867) can0 247#667D890300002600
(1510588576.643722) can0 209#0000000068011400
(1510588576.643969) can0 20B#0000000068011400
(1510588576.644198) can0 229#4404A1002100ECD1
(1510588576.644431) can0 22B#8104AA003B00ECD1
(1510588576.644671) can0 239#4541001700000000
(1510588576.644911) can0 23B#4541001700000000
(1510588576.645147) can0 249#667D890300002600
(1510588576.645382) can0 24B#667D890300002600
(1510588576.645627) can0 719#1400000010000000
(1510588576.645873) can0 71B#1300000000000000
(1510588576.651961) can0 217#000000007F020004
(1510588576.653543) can0 219#00C07E0080020004
(1510588576.653785) can0 21B#00C07F0083020004
(1510588576.688008) can0 45C#0000093E00000000
(1510588576.706435) can0 42C#0060000020000000
(1510588576.706680) can0 43C#0060000020000000
(1510588576.706929) can0 44C#0060000020000000
(1510588576.742039) can0 367#0000000000000000
(1510588576.742281) can0 207#0000000068011400
(1510588576.742518) can0 227#500494002C00ECD1
(1510588576.742758) can0 237#4641001700000000
(1510588576.742991) can0 247#667D890300002600
(1510588576.743227) can0 717#1600000000006539
(1510588576.743702) can0 209#0000000068011400
(1510588576.743945) can0 20B#0000000068011400
(1510588576.744182) can0 229#4D049E001800ECD1
(1510588576.744409) can0 22B#8B04A6003100ECD1
(1510588576.744650) can0 239#4541001700000000
(1510588576.744888) can0 23B#4541001700000000
(1510588576.745130) can0 249#667D890300002600
(1510588576.745367) can0 24B#667D890300002600
(1510588576.745622) can0 71B#14000000F5FF0000
(1510588576.751943) can0 217#000000007F020004
(1510588576.752170) can0 377#0000000000000000
(1510588576.753503) can0 219#00C07E0080020004
(1510588576.753746) can0 21B#00C07F0083020004
(1510588576.762031) can0 347#0000000000000000
(1510588576.772028) can0 357#0000000000000000
(1510588576.782030) can0 327#0000000000000000
(1510588576.788008) can0 45C#0000093E00000000
(1510588576.788145) can0 10C#0C00
(1510588576.788288) can0 547#0CFF
(1510588576.788421) can0 549#0CFF
(1510588576.788552) can0 54B#0CFF
(1510588576.792019) can0 337#0000000000000000
(1510588576.806440) can0 42C#0060000020000000
(1510588576.806680) can0 43C#0060000020000000
(1510588576.806928) can0 44C#0060000020000000
(1510588576.842112) can0 207#0000C0FF68011400
(1510588576.842338) can0 227#560490002B00ECD1
(1510588576.842578) can0 237#4641001700000000
(1510588576.842812) can0 247#667D890300002600
(1510588576.843054) can0 717#1700002001000001
(1510588576.843610) can0 369#0000000000000000
(1510588576.843858) can0 209#0000000068011400
(1510588576.844104) can0 20B#0000000068011400
(1510588576.844337) can0 229#4C04A1001F00ECD1
(1510588576.844570) can0 22B#8504A4003C00ECD1
(1510588576.844810) can0 239#4541001700000000
(1510588576.845050) can0 23B#4541001700000000
(1510588576.845286) can0 249#667D890300002600
(1510588576.845522) can0 24B#667D890300002600
(1510588576.845764) can0 719#160000000000ED38
(1510588576.851919) can0 217#000000007F020004
(1510588576.853508) can0 219#00807E0080020004
(1510588576.853752) can0 21B#00C07F0083020004
(1510588576.854001) can0 379#0000000000000000
(1510588576.863613) can0 349#0000000000000000
(1510588576.873605) can0 359#0000000000000000
(1510588576.883603) can0 329#0000000000000000
(1510588576.888015) can0 45C#0000093E00000000
(1510588576.893599) can0 339#0000000000000000
(1510588576.906440) can0 42C#0060000020000000
(1510588576.906686) can0 43C#0060000020000000
(1510588576.906934) can0 44C#0060000020000000
(1510588576.942078) can0 207#0000000068011400
(1510588576.942310) can0 227#510490001F00ECD1
(1510588576.942549) can0 237#4641001700000000
(1510588576.942790) can0 247#667D890300002600
(1510588576.943031) can0 717#1800660600000000
(1510588576.943673) can0 209#0000000068011400
(1510588576.943899) can0 229#5104A8001600ECD1
(1510588576.944144) can0 20B#0000000068011400
(1510588576.944376) can0 22B#8E04A4002E00ECD1
(1510588576.944619) can0 239#4541001700000000
(1510588576.944861) can0 23B#4541001700000000
(1510588576.945096) can0 249#667D890300002600
(1510588576.945332) can0 24B#667D890300002600
(1510588576.945579) can0 36B#0000000000000000
(1510588576.945818) can0 719#1700024001001001
(1510588576.946063) can0 71B#1600000000008539
(1510588576.951911) can0 217#000000007F020004
(1510588576.953468) can0 219#00807E0080020004
(1510588576.953710) can0 21B#00C07F0083020004
(1510588576.953959) can0 37B#0000000000000000
(1510588576.963758) can0 34B#0000000000000000
(1510588576.973763) can0 35B#0000000000000000
(1510588576.983762) can0 32B#0000000000000000
(1510588576.988012) can0 45C#0000093E00000000
(1510588576.988148) can0 10C#0D00
(1510588576.988300) can0 547#0DFF
(1510588576.988432) can0 549#0DFF
(1510588576.988575) can0 54B#0DFF
(1510588576.993752) can0 33B#0000000000000000
(1510588577.006443) can0 42C#0060000020000000
(1510588577.006688) can0 43C#0060000020000000
(1510588577.006936) can0 44C#0060000020000000
(1510588577.042051) can0 207#0000000068011400
(1510588577.042279) can0 227#5A048B002600ECD1
(1510588577.042519) can0 237#4641001700000000
(1510588577.042753) can0 247#667D890300002600
(1510588577.042999) can0 717#1900000000000000
(1510588577.043668) can0 209#0000000068011400
(1510588577.043909) can0 20B#0000C0FF68011400
(1510588577.044142) can0 229#5E04AC001A00ECD1
(1510588577.044373) can0 22B#8E04A4002200ECD1
(1510588577.044614) can0 239#4541001700000000
(1510588577.044853) can0 23B#4541001700000000
(1510588577.045090) can0 249#667D890300002600
(1510588577.045325) can0 24B#667D890300002600
(1510588577.045571) can0 719#1800660600000000
(1510588577.045812) can0 71B#1700023001003001
(1510588577.051855) can0 217#000000007F020004
(1510588577.053461) can0 219#00807E0080020004
(1510588577.053704) can0 21B#00C07F0083020004
(1510588577.088022) can0 45C#0000093E00000000
(1510588577.106477) can0 42C#0060000020000000
(1510588577.106693) can0 43C#0060000020000000
(1510588577.106940) can0 44C#0060000020000000
(1510588577.142038) can0 207#0000C0FF68011400
(1510588577.142263) can0 227#5E048C001E00ECD1
(1510588577.142504) can0 237#4641001700000000
(1510588577.142738) can0 247#667D890300002600
(1510588577.142978) can0 717#01000000CC0C6000
(1510588577.143630) can0 209#0000000068011400
(1510588577.143856) can0 20B#0000C0FF68011400
(1510588577.144083) can0 229#5C04A3002B00ECD1
(1510588577.144315) can0 22B#97049D002E00ECD1
(1510588577.144554) can0 239#4541001700000000
(1510588577.144796) can0 23B#4541001700000000
(1510588577.145036) can0 249#667D890300002600
(1510588577.145272) can0 24B#667D890300002600
(1510588577.145523) can0 719#1900000000000000
(1510588577.145758) can0 71B#1800660600000000
(1510588577.151852) can0 217#000000007F020004
(1510588577.153446) can0 219#00807E0080020004
(1510588577.153690) can0 21B#00C07F0083020004
(1510588577.188019) can0 45C#0000093E00000000
(1510588577.188148) can0 10C#0E00
(1510588577.188302) can0 54B#0EFF
(1510588577.188434) can0 547#0EFF
(1510588577.188566) can0 549#0EFF
(1510588577.206450) can0 42C#0060000020000000
(1510588577.206694) can0 43C#0060000020000000
(1510588577.206943) can0 44C#0060000020000000
(1510588577.241995) can0 207#0000C0FF68011400
(1510588577.242228) can0 227#630491002200ECD1
(1510588577.242468) can0 237#4641001700000000
(1510588577.242701) can0 247#667D890300002600
(1510588577.242948) can0 717#0200000000000000
(1510588577.243592) can0 209#0000000068011400
(1510588577.243837) can0 20B#0000000068011400
(1510588577.244068) can0 229#5C04A9004200ECD1
(1510588577.244302) can0 22B#9504A0002800ECD1
(1510588577.244541) can0 239#4541001700000000
(1510588577.244781) can0 23B#4541001700000000
(1510588577.245018) can0 249#667D890300002600
(1510588577.245253) can0 24B#667D890300002600
(1510588577.245495) can0 719#01000000CC0C6000
(1510588577.245742) can0 71B#1900000000000000
(1510588577.251805) can0 217#000000007F020004
(1510588577.253410) can0 219#00807E0080020004
(1510588577.253651) can0 21B#00C07F0083020004
(1510588577.288033) can0 45C#0000093E00000000
(1510588577.306454) can0 42C#0060000020000000
(1510588577.306697) can0 43C#0060000020000000
(1510588577.306946) can0 44C#0060000020000000
(1510588577.341988) can0 207#0000C0FF68011400
(1510588577.342216) can0 227#600491001B00ECD1
(1510588577.342459) can0 237#4641001700000000
(1510588577.342691) can0 247#667D890300002600
(1510588577.343606) can0 209#0000000068011400
(1510588577.343842) can0 20B#0000000068011400
(1510588577.344068) can0 229#6804A9003100ECD1
(1510588577.344304) can0 22B#9D049F002500ECD1
(1510588577.344544) can0 239#4541001700000000
(1510588577.344788) can0 23B#4541001700000000
(1510588577.345022) can0 249#667D890300002600
(1510588577.345257) can0 24B#667D890300002600
(1510588577.345505) can0 719#0200000000000000
(1510588577.345747) can0 71B#01000000CC0C6000
(1510588577.351811) can0 217#000000007F020004
(1510588577.353402) can0 219#00807E0080020004
(1510588577.353646) can0 21B#00C07F0083020004
(1510588577.388028) can0 45C#0000093E00000000
(1510588577.388159) can0 10C#0F00
(1510588577.388310) can0 549#0FFF
(1510588577.388444) can0 547#0FFF
(1510588577.388589) can0 54B#0FFF
(1510588577.406456) can0 42C#0060000020000000
(1510588577.406702) can0 43C#0060000020000000
(1510588577.406949) can0 44C#0060000020000000
(1510588577.441944) can0 207#0000C0FF68011400
(1510588577.442176) can0 227#6B0490001500ECD1
(1510588577.442416) can0 237#4641001700000000
(1510588577.442650) can0 247#667D890300002600
(1510588577.442894) can0 717#040000000D090000
(1510588577.443544) can0 209#0000000068011400
(1510588577.443790) can0 20B#0000000068011400
(1510588577.444020) can0 229#6604A5001D00ECD1
(1510588577.444254) can0 22B#9C04A0002400ECD1
(1510588577.444495) can0 239#4541001700000000
(1510588577.444734) can0 23B#4541001700000000
(1510588577.444970) can0 249#667D890300002600
(1510588577.445205) can0 24B#667D890300002600
(1510588577.445454) can0 71B#0200000000000000
(1510588577.451787) can0 217#000000007F020004
(1510588577.453362) can0 219#00807E0080020004
(1510588577.453605) can0 21B#00C07F0083020004
(1510588577.488033) can0 45C#0000093E00000000
(1510588577.506459) can0 42C#0060000020000000
(1510588577.506703) can0 43C#0060000020000000
(1510588577.506952) can0 44C#0060000020000000
(1510588577.541938) can0 207#0000C0FF68011400
(1510588577.542166) can0 227#6B048D001400ECD1
(1510588577.542408) can0 237#4641001700000000
(1510588577.542643) can0 247#667D890300002600
(1510588577.542887) can0 717#0500000000000000
(1510588577.543539) can0 209#0000000068011400
(1510588577.543775) can0 20B#0000C0FF68011400
(1510588577.544003) can0 229#6F04A9004300ECD1
(1510588577.544232) can0 22B#A704A2002100ECD1
(1510588577.544477) can0 239#4541001700000000
(1510588577.544737) can0 23B#4541001700000000
(1510588577.544951) can0 249#667D890300002600
(1510588577.545186) can0 24B#667D890300002600
(1510588577.545426) can0 719#040000000D090500
(1510588577.551756) can0 217#000000007F020004
(1510588577.553354) can0 219#00807E0080020004
(1510588577.553598) can0 21B#00C07F0083020004
(1510588577.588113) can0 45C#0000093E00000000
(1510588577.588213) can0 10C#1000
(1510588577.588297) can0 549#10FF
(1510588577.588458) can0 547#10FF
(1510588577.588624) can0 54B#10FF
(1510588577.606549) can0 42C#0060000020000000
(1510588577.606726) can0 43C#0060000020000000
(1510588577.606987) can0 44C#0060000020000000
(1510588577.641979) can0 207#0000C0FF68011400
(1510588577.642164) can0 227#6D048F000D00ECD1
(1510588577.642404) can0 237#4641001700000000
(1510588577.642636) can0 247#667D890300002600
(1510588577.642871) can0 717#0600313999010040
(1510588577.643509) can0 209#0000000068011400
(1510588577.643753) can0 20B#0000000068011400
(1510588577.643985) can0 229#7704AC001300ECD1
(1510588577.644217) can0 22B#A4049E001D00ECD1
(1510588577.644457) can0 239#4541001700000000
(1510588577.644695) can0 23B#4541001700000000
(1510588577.644930) can0 249#667D890300002600
(1510588577.645166) can0 24B#667D890300002600
(1510588577.645412) can0 719#0500000000000000
(1510588577.645657) can0 71B#040000000D090400
(1510588577.651751) can0 217#000000007F020004
(1510588577.653342) can0 219#00807E0080020004
(1510588577.653585) can0 21B#00C07F0083020004
(1510588577.688102) can0 45C#0000093E00000000
(1510588577.706513) can0 42C#0060000020000000
(1510588577.706737) can0 43C#0060000020000000
(1510588577.706956) can0 44C#0060000020000000
(1510588577.741860) can0 367#0000000000000000
(1510588577.742064) can0 207#0000C0FF68011400
(1510588577.742290) can0 227#750495000F00ECD1
(1510588577.742530) can0 237#4641001700000000
(1510588577.742771) can0 247#667D890300002600
(1510588577.743016) can0 717#0700000002260000
(1510588577.743498) can0 209#0000000068011400
(1510588577.743744) can0 20B#0000000068011400
(1510588577.743972) can0 229#7C04AD002400ECD1
(1510588577.744200) can0 22B#AB04A3002B00ECD1
(1510588577.744442) can0 239#4541001700000000
(1510588577.744683) can0 23B#4541001700000000
(1510588577.744914) can0 249#667D890300002600
(1510588577.745157) can0 24B#667D890300002600
(1510588577.745394) can0 719#0600893999010040
(1510588577.745634) can0 71B#0500000000000000
(1510588577.751746) can0 217#000000007F020004
(1510588577.751972) can0 377#0000000000000000
(1510588577.753300) can0 219#00807E0080020004
(1510588577.753542) can0 21B#00C07F0083020004
(1510588577.761814) can0 347#0000000000000000
(1510588577.771815) can0 357#0000000000000000
(1510588577.781814) can0 327#0000000000000000
(1510588577.788035) can0 45C#0000093E00000000
(1510588577.788165) can0 10C#1100
(1510588577.788315) can0 547#11FF
(1510588577.788444) can0 549#11FF
(1510588577.788572) can0 54B#11FF
(1510588577.791810) can0 337#0000000000000000
(1510588577.806468) can0 42C#0060000020000000
(1510588577.806713) can0 43C#0060000020000000
(1510588577.806960) can0 44C#0060000020000000
(1510588577.841864) can0 207#0000000068011400
(1510588577.842093) can0 227#7B0497001400ECD1
(1510588577.842332) can0 237#4641001700000000
(1510588577.842565) can0 247#667D890300002600
(1510588577.842804) can0 717#08000000F5380000
(1510588577.843395) can0 369#0000000000000000
(1510588577.843641) can0 209#0000000068011400
(1510588577.843882) can0 20B#0000C0FF68011400
(1510588577.844118) can0 229#7A04A9000F00ECD1
(1510588577.844349) can0 22B#B204A2001500ECD1
(1510588577.844588) can0 239#4541001700000000
(1510588577.844827) can0 23B#4541001700000000
(1510588577.845063) can0 249#667D890300002600
(1510588577.845299) can0 24B#667D890300002600
(1510588577.845541) can0 719#0700000002260000
(1510588577.845777) can0 71B#0600713999010040
(1510588577.851684) can0 217#000000007F020004
(1510588577.853297) can0 219#00807E0080020004
(1510588577.853540) can0 21B#00C07F0083020004
(1510588577.853789) can0 379#0000000000000000
(1510588577.863400) can0 349#0000000000000000
(1510588577.873393) can0 359#0000000000000000
(1510588577.883391) can0 329#0000000000000000
(1510588577.888037) can0 45C#0000093E00000000
(1510588577.893386) can0 339#0000000000000000
(1510588577.906469) can0 42C#0060000020000000
(1510588577.906714) can0 43C#0060000020000000
(1510588577.906961) can0 44C#0060000020000000
(1510588577.941860) can0 207#0000C0FF68011400
(1510588577.942090) can0 227#7C0498001800ECD1
(1510588577.942333) can0 237#4641001700000000
(1510588577.942562) can0 247#667D890300002600
(1510588577.942806) can0 717#0900393900000000
(1510588577.943457) can0 209#0000000068011400
(1510588577.943681) can0 229#8604AE001200ECD1
(1510588577.943923) can0 20B#0000C0FF68011400
(1510588577.944157) can0 22B#B0049E001400ECD1
(1510588577.944394) can0 239#4541001700000000
(1510588577.944635) can0 23B#4541001700000000
(1510588577.944871) can0 249#667D890300002600
(1510588577.945105) can0 24B#667D890300002600
(1510588577.945354) can0 36B#0000000000000000
(1510588577.945595) can0 719#0800000071390000
(1510588577.945846) can0 71B#0700000002260000
(1510588577.951685) can0 217#000000007F020004
(1510588577.953283) can0 219#00807E0080020004
(1510588577.953527) can0 21B#00C07F0083020004
(1510588577.953775) can0 37B#0000000000000000
(1510588577.963561) can0 34B#0000000000000000
(1510588577.973563) can0 35B#0000000000000000
(1510588577.983562) can0 32B#0000000000000000
(1510588577.988042) can0 45C#0000093E00000000
(1510588577.988171) can0 10C#1200
(1510588577.988321) can0 547#12FF
(1510588577.988454) can0 549#12FF
(1510588577.988588) can0 54B#12FF
(1510588577.993553) can0 33B#0000000000000000
(1510588578.006472) can0 42C#0060000020000000
(1510588578.006717) can0 43C#0060000020000000
(1510588578.006965) can0 44C#0060000020000000
(1510588578.041828) can0 207#0000000068011400
(1510588578.042061) can0 227#7F0495000C00ECD1
(1510588578.042300) can0 237#4641001700000000
(1510588578.042534) can0 247#667D890300002600
(1510588578.042780) can0 717#0A00000000000000
(1510588578.043429) can0 209#0000000068011400
(1510588578.043673) can0 20B#0000000068011400
(1510588578.043905) can0 229#8604B0002500ECD1
(1510588578.044136) can0 22B#BE04A8001300ECD1
(1510588578.044376) can0 239#4541001700000000
(1510588578.044616) can0 23B#4541001700000000
(1510588578.044851) can0 249#667D890300002600
(1510588578.045087) can0 24B#667D890300002600
(1510588578.045329) can0 719#0900713900000000
(1510588578.045577) can0 71B#08000000FD380000
(1510588578.051633) can0 217#000000007F020004
(1510588578.053246) can0 219#00807E0080020004
(1510588578.053489) can0 21B#00C07F0083020004
(1510588578.088045) can0 45C#0000093E00000000
(1510588578.106507) can0 42C#0060000020000000
(1510588578.106721) can0 43C#0060000020000000
(1510588578.106968) can0 44C#0060000020000000
(1510588578.141811) can0 207#0000C0FF68011400
(1510588578.142047) can0 227#810495001700ECD1
(1510588578.142283) can0 237#4641001700000000
(1510588578.142535) can0 247#667D890300002600
(1510588578.142762) can0 717#0B00000000000000
(1510588578.143410) can0 209#0000000068011400
(1510588578.143655) can0 20B#0000C0FF68011400
(1510588578.143885) can0 229#8904A9001B00ECD1
(1510588578.144112) can0 22B#BC04A8001200ECD1
(1510588578.144351) can0 239#4541001700000000
(1510588578.144591) can0 23B#4541001700000000
(1510588578.144827) can0 249#667D890300002600
(1510588578.145062) can0 24B#667D890300002600
(1510588578.145308) can0 719#0A00000000000000
(1510588578.145550) can0 71B#0900313900000000
(1510588578.151652) can0 217#000000007F020004
(1510588578.153238) can0 219#00807E0080020004
(1510588578.153482) can0 21B#00C07F0083020004
(1510588578.188046) can0 45C#0000093E00000000
(1510588578.188182) can0 10C#1300
(1510588578.188336) can0 547#13FF
(1510588578.188467) can0 549#13FF
(1510588578.188596) can0 54B#13FF
(1510588578.206479) can0 42C#0060000020000000
(1510588578.206723) can0 43C#0060000020000000
(1510588578.206970) can0 44C#0060000020000000
(1510588578.241769) can0 207#0000C0FF68011400
(1510588578.241998) can0 227#86049C001300ECD1
(1510588578.242239) can0 237#4641001700000000
(1510588578.242471) can0 247#667D890300002600
(1510588578.242709) can0 717#0C01000404060100
(1510588578.243375) can0 209#0000C0FF68011400
(1510588578.243620) can0 20B#0000000068011400
(1510588578.243854) can0 229#8E04AE001B00ECD1
(1510588578.244083) can0 22B#C604AB001D00ECD1
(1510588578.244323) can0 239#4541001700000000
(1510588578.244562) can0 23B#4541001700000000
(1510588578.244797) can0 249#667D890300002600
(1510588578.245034) can0 24B#667D890300002600
(1510588578.245280) can0 719#0B00000000000000
(1510588578.245528) can0 71B#0A00000000000000
(1510588578.251612) can0 217#000000007F020004
(1510588578.253198) can0 219#00807E0080020004
(1510588578.253440) can0 21B#00C07F0083020004
(1510588578.288049) can0 45C#0000093E00000000
(1510588578.306482) can0 42C#0060000020000000
(1510588578.306726) can0 43C#0060000020000000
(1510588578.306974) can0 44C#0060000020000000
(1510588578.341763) can0 207#0000C0FF68011400
(1510588578.341990) can0 227#8D049B001000ECD1
(1510588578.342234) can0 237#4641001700000000
(1510588578.342466) can0 247#667D890300002600
(1510588578.342707) can0 717#0E000002060E0000
(1510588578.343386) can0 209#0000C0FF68011400
(1510588578.343628) can0 20B#0000000068011400
(1510588578.343856) can0 229#8C04B1001600ECD1
(1510588578.344087) can0 22B#C904AB000900ECD1
(1510588578.344328) can0 239#4541001700000000
(1510588578.344566) can0 23B#4541001700000000
(1510588578.344802) can0 249#667D890300002600
(1510588578.345037) can0 24B#667D890300002600
(1510588578.345277) can0 719#0C01000404060100
(1510588578.345526) can0 71B#0B00000000000000
(1510588578.351584) can0 217#000000007F020004
(1510588578.353201) can0 219#00807E0080020004
(1510588578.353445) can0 21B#00C07F0083020004
(1510588578.388055) can0 45C#0000093E00000000
(1510588578.388190) can0 10C#1400
(1510588578.388338) can0 54B#14FF
(1510588578.388468) can0 547#14FF
(1510588578.388598) can0 549#14FF
(1510588578.406483) can0 42C#0060000020000000
(1510588578.406727) can0 43C#0060000020000000
(1510588578.406975) can0 44C#0060000020000000
(1510588578.441760) can0 207#0000C0FF68011400
(1510588578.441990) can0 227#8C0494000800ECD1
(1510588578.442232) can0 237#4641001700000000
(1510588578.442464) can0 247#667D890300002600
(1510588578.442701) can0 717#0F00C701570E0000
(1510588578.443348) can0 209#0000000068011400
(1510588578.443594) can0 20B#0000000068011400
(1510588578.443825) can0 229#8B04AE000500ECD1
(1510588578.444058) can0 22B#CF04B3001100ECD1
(1510588578.444299) can0 239#4541001700000000
(1510588578.444537) can0 23B#4541001700000000
(1510588578.444773) can0 249#667D890300002600
(1510588578.445009) can0 24B#667D890300002600
(1510588578.445252) can0 719#0E000002060E0000
(1510588578.445493) can0 71B#0C01000404060100
(1510588578.451571) can0 217#000000007F020004
(1510588578.453182) can0 219#00807E0080020004
(1510588578.453425) can0 21B#00C07F0083020004
(1510588578.488058) can0 45C#0000093E00000000
(1510588578.506486) can0 42C#0060000020000000
(1510588578.506731) can0 43C#0060000020000000
(1510588578.506979) can0 44C#0060000020000000
(1510588578.541710) can0 207#0000C0FF68011400
(1510588578.541934) can0 227#91049A001D00ECD1
(1510588578.542176) can0 237#4641001700000000
(1510588578.542409) can0 247#667D890300002600
(1510588578.542662) can0 717#1001000016000000
(1510588578.543324) can0 209#0000C0FF68011400
(1510588578.543584) can0 20B#0000C0FF68011400
(1510588578.543792) can0 229#9704AB001500ECD1
(1510588578.544029) can0 22B#CE04AB000F00ECD1
(1510588578.544260) can0 239#4541001700000000
(1510588578.544499) can0 23B#4541001700000000
(1510588578.544734) can0 249#667D890300002600
(1510588578.544971) can0 24B#667D890300002600
(1510588578.545206) can0 719#0F00C701CB0B0000
(1510588578.545450) can0 71B#0E000002060E0000
(1510588578.551545) can0 217#000000007F020004
(1510588578.553138) can0 219#00807E0080020004
(1510588578.553383) can0 21B#00C07F0083020004
(1510588578.588062) can0 45C#0000093E00000000
(1510588578.588189) can0 10C#1500
(1510588578.588340) can0 547#15FF
(1510588578.588473) can0 549#15FF
(1510588578.588602) can0 54B#15FF
(1510588578.606528) can0 42C#0060000020000000
(1510588578.606741) can0 43C#0060000020000000
(1510588578.606984) can0 44C#0060000020000000
(1510588578.641699) can0 207#0000000068011400
(1510588578.641932) can0 227#95049E000400ECD1
(1510588578.642171) can0 237#4641001700000000
(1510588578.642404) can0 247#667D890300002600
(1510588578.642642) can0 717#110089FF00000202
(1510588578.643325) can0 209#0000000068011400
(1510588578.643568) can0 20B#0000C0FF68011400
(1510588578.643800) can0 229#9304A8001900ECD1
(1510588578.644031) can0 22B#D804AC001700ECD1
(1510588578.644271) can0 239#4541001700000000
(1510588578.644510) can0 23B#4541001700000000
(1510588578.644746) can0 249#667D890300002600
(1510588578.644982) can0 24B#667D890300002600
(1510588578.645220) can0 719#10F50F0016000000
(1510588578.645456) can0 71B#0F00C7011D0E0000
(1510588578.651525) can0 217#000000007F020004
(1510588578.653134) can0 219#00807E0080020004
(1510588578.653377) can0 21B#00C07F0083020004
(1510588578.688061) can0 45C#0000093E00000000
(1510588578.706493) can0 42C#0060000020000000
(1510588578.706738) can0 43C#0060000020000000
(1510588578.706985) can0 44C#0060000020000000
(1510588578.741600) can0 367#0000000000000000
(1510588578.741836) can0 207#0000C0FF68011400
(1510588578.742072) can0 227#9B0498000900ECD1
(1510588578.742311) can0 237#4641001700000000
(1510588578.742547) can0 247#667D890300002600
(1510588578.742778) can0 717#1240290027001700
(1510588578.743293) can0 209#0000000068011400
(1510588578.743532) can0 20B#0000000068011400
(1510588578.743763) can0 229#A204AF000A00ECD1
(1510588578.743994) can0 22B#DD04B0000300ECD1
(1510588578.744235) can0 239#4541001700000000
(1510588578.744475) can0 23B#4541001700000000
(1510588578.744708) can0 249#667D890300002600
(1510588578.744944) can0 24B#667D890300002600
(1510588578.745187) can0 719#11007CFF00000202
(1510588578.745431) can0 71B#10FF0F0018000000
(1510588578.751512) can0 217#000000007F020004
(1510588578.751745) can0 377#0000000000000000
(1510588578.753104) can0 219#00807E0080020004
(1510588578.753347) can0 21B#00C07F0083020004
(1510588578.761593) can0 347#0000000000000000
(1510588578.771587) can0 357#0000000000000000
(1510588578.781591) can0 327#0000000000000000
(1510588578.788063) can0 45C#0000093E00000000
(1510588578.788191) can0 10C#1600
(1510588578.788344) can0 549#16FF
(1510588578.788477) can0 547#16FF
(1510588578.788607) can0 54B#16FF
(1510588578.791583) can0 337#0000000000000000
(1510588578.806496) can0 42C#0060000020000000
(1510588578.806740) can0 43C#0060000020000000
(1510588578.806988) can0 44C#0060000020000000
(1510588578.841641) can0 207#0000C0FF68011400
(1510588578.841873) can0 227#A0049B000700ECD1
(1510588578.842115) can0 237#4641001700000000
(1510588578.842347) can0 247#667D890300002600
(1510588578.842595) can0 717#1300000000000000
(1510588578.843189) can0 369#0000000000000000
(1510588578.843435) can0 209#0000000068011400
(1510588578.843678) can0 20B#0000C0FF68011400
(1510588578.843913) can0 229#9A04AB000100ECD1
(1510588578.844143) can0 22B#DC04AD000B00ECD1
(1510588578.844383) can0 239#4541001700000000
(1510588578.844622) can0 23B#4541001700000000
(1510588578.844858) can0 249#667D890300002600
(1510588578.845094) can0 24B#667D890300002600
(1510588578.845330) can0 719#123F290027001700
(1510588578.845574) can0 71B#11007DFF00000202
(1510588578.851466) can0 217#000000007F020004
(1510588578.853101) can0 219#00807E0080020004
(1510588578.853343) can0 21B#00C07F0083020004
(1510588578.853594) can0 379#0000000000000000
(1510588578.863203) can0 349#0000000000000000
(1510588578.873195) can0 359#0000000000000000
(1510588578.883194) can0 329#0000000000000000
(1510588578.888064) can0 45C#0000093E00000000
(1510588578.893188) can0 339#0000000000000000
(1510588578.906498) can0 42C#0060000020000000
(1510588578.906742) can0 43C#0060000020000000
(1510588578.906990) can0 44C#0060000020000000
(1510588578.941648) can0 207#0000C0FF68011400
(1510588578.941872) can0 227#9E049B000A00ECD1
(1510588578.942115) can0 237#4641001700000000
(1510588578.942346) can0 247#667D890300002600
(1510588578.942596) can0 717#1400000018000000
(1510588578.943249) can0 209#0000000068011400
(1510588578.943476) can0 229#A404AB001000ECD1
(1510588578.943718) can0 20B#0000C0FF68011400
(1510588578.943953) can0 22B#E304AB001300ECD1
(1510588578.944186) can0 239#4541001700000000
(1510588578.944427) can0 23B#4541001700000000
(1510588578.944661) can0 249#667D890300002600
(1510588578.944897) can0 24B#667D890300002600
(1510588578.945145) can0 36B#0000000000000000
(1510588578.945391) can0 719#1300000000000000
(1510588578.945631) can0 71B#1240290027001800
(1510588578.951476) can0 217#000000007F020004
(1510588578.953075) can0 219#00807E0080020004
(1510588578.953319) can0 21B#00C07F0083020004
(1510588578.953567) can0 37B#0000000000000000
(1510588578.963354) can0 34B#0000000000000000
(1510588578.973357) can0 35B#0000000000000000
(1510588578.983364) can0 32B#0000000000000000
(1510588578.988067) can0 45C#0000093E00000000
(1510588578.988200) can0 10C#1700
(1510588578.988353) can0 54B#17FF
(1510588578.988483) can0 547#17FF
(1510588578.988613) can0 549#17FF
(1510588578.993345) can0 33B#0000000000000000
(1510588579.006500) can0 42C#0060000020000000
(1510588579.006744) can0 43C#0060000020000000
(1510588579.006992) can0 44C#0060000020000000
(1510588579.041610) can0 207#0000C0FF68011400
(1510588579.041838) can0 227#A10499000B00ECD1
(1510588579.042079) can0 237#4641001700000000
(1510588579.042312) can0 247#667D890300002600
(1510588579.043215) can0 209#0000000068011400
(1510588579.043458) can0 20B#0000C0FF68011400
(1510588579.043691) can0 229#A704A8000F00ECD1
(1510588579.043926) can0 22B#E904AE001500ECD1
(1510588579.044168) can0 239#4541001700000000
(1510588579.044406) can0 23B#4541001700000000
(1510588579.044641) can0 249#667D890300002600
(1510588579.044876) can0 24B#667D890300002600
(1510588579.045118) can0 719#14000000F6FF0000
(1510588579.045367) can0 71B#1300000000000000
(1510588579.051437) can0 217#000000007F020004
(1510588579.053033) can0 219#00807E0080020004
(1510588579.053276) can0 21B#00C07F0083020004
(1510588579.088072) can0 45C#0000093E00000000
(1510588579.106536) can0 42C#0060000020000000
(1510588579.106748) can0 43C#0060000020000000
(1510588579.106995) can0 44C#0060000020000000
(1510588579.141592) can0 207#0000000068011400
(1510588579.141830) can0 227#AB0496000300ECD1
(1510588579.142063) can0 237#4641001700000000
(1510588579.142301) can0 247#667D890300002600
(1510588579.142539) can0 717#1600000000007D39
(1510588579.143224) can0 209#0000C0FF68011400
(1510588579.143462) can0 20B#0000C0FF68011400
(1510588579.143691) can0 229#AA04A5000E00ECD1
(1510588579.143924) can0 22B#E904AB001800ECD1
(1510588579.144164) can0 239#4541001700000000
(1510588579.144402) can0 23B#4541001700000000
(1510588579.144638) can0 249#667D890300002600
(1510588579.144874) can0 24B#667D890300002600
(1510588579.145123) can0 71B#14000000E7FF0000
(1510588579.151410) can0 217#000000007F020004
(1510588579.153038) can0 219#00807E0080020004
(1510588579.153282) can0 21B#00C07F0083020004
(1510588579.188078) can0 45C#0000093E00000000
(1510588579.188203) can0 10C#1800
(1510588579.188356) can0 547#18FF
(1510588579.188489) can0 549#18FF
(1510588579.188618) can0 54B#18FF
(1510588579.206506) can0 42C#0060000020000000
(1510588579.206751) can0 43C#0060000020000000
(1510588579.206999) can0 44C#0060000020000000
(1510588579.241553) can0 207#0000C0FF68011400
(1510588579.241785) can0 227#A70495001200ECD1
(1510588579.242024) can0 237#4641001700000000
(1510588579.242257) can0 247#667D890300002600
(1510588579.242500) can0 717#1700004001002001
(1510588579.243183) can0 209#0000000068011400
(1510588579.243429) can0 20B#0000000068011400
(1510588579.243658) can0 229#AB04A7001300ECD1
(1510588579.243890) can0 22B#F304AE000800ECD1
(1510588579.244130) can0 239#4541001700000000
(1510588579.244369) can0 23B#4541001700000000
(1510588579.244605) can0 249#667D890300002600
(1510588579.244841) can0 24B#667D890300002600
(1510588579.245085) can0 719#1600000000008139
(1510588579.251396) can0 217#000000007F020004
(1510588579.253001) can0 219#00807E0080020004
(1510588579.253243) can0 21B#00C07F0083020004
(1510588579.288075) can0 45C#0000093E00000000
(1510588579.306509) can0 42C#0060000020000000
(1510588579.306754) can0 43C#0060000020000000
(1510588579.307001) can0 44C#0060000020000000
(1510588579.341538) can0 207#0000C0FF68011400
(1510588579.341761) can0 227#B40497000E00ECD1
(1510588579.342003) can0 237#4641001700000000
(1510588579.342235) can0 247#667D890300002600
(1510588579.342477) can0 717#1800660600000000
(1510588579.343192) can0 209#0000000068011400
(1510588579.343433) can0 20B#0000C0FF68011400
(1510588579.343661) can0 229#B204A4001100ECD1
(1510588579.343894) can0 22B#F204AD001000ECD1
(1510588579.344133) can0 239#4541001700000000
(1510588579.344374) can0 23B#4541001700000000
(1510588579.344607) can0 249#667D890300002600
(1510588579.344842) can0 24B#667D890300002600
(1510588579.345081) can0 719#1700027001005001
(1510588579.345323) can0 71B#1600000000007939
(1510588579.351361) can0 217#000000007F020004
(1510588579.352989) can0 219#00807E0080020004
(1510588579.353232) can0 21B#00C07F0083020004
(1510588579.388082) can0 45C#0000093E00000000
(1510588579.388210) can0 10C#1900
(1510588579.388364) can0 54B#19FF
(1510588579.388499) can0 547#19FF
(1510588579.388630) can0 549#19FF
(1510588579.406513) can0 42C#0060000020000000
(1510588579.406757) can0 43C#0060000020000000
(1510588579.407005) can0 44C#0060000020000000
(1510588579.441548) can0 207#0000C0FF68011400
(1510588579.441771) can0 227#B3048D001100ECD1
(1510588579.442013) can0 237#4641001700000000
(1510588579.442245) can0 247#667D890300002600
(1510588579.442491) can0 717#1900000000000000
(1510588579.443131) can0 209#0000000068011400
(1510588579.443372) can0 20B#0000C0FF68011400
(1510588579.443603) can0 229#B404A4000A00ECD1
(1510588579.443838) can0 22B#F104AB000900ECD1
(1510588579.444077) can0 239#4541001700000000
(1510588579.444316) can0 23B#4541001700000000
(1510588579.444551) can0 249#667D890300002600
(1510588579.444787) can0 24B#667D890300002600
(1510588579.445033) can0 719#1800660600000000
(1510588579.445275) can0 71B#1700025001007001
(1510588579.451349) can0 217#000000007F020004
(1510588579.452978) can0 219#00807E0080020004
(1510588579.453222) can0 21B#00C07F0083020004
(1510588579.488087) can0 45C#0000093E00000000
(1510588579.506513) can0 42C#0060000020000000
(1510588579.506758) can0 43C#0060000020000000
(1510588579.507006) can0 44C#0060000020000000
(1510588579.541499) can0 207#0000C0FF68011400
(1510588579.541723) can0 227#AE0499000500ECD1
(1510588579.541966) can0 237#4641001700000000
(1510588579.542197) can0 247#667D890300002600
(1510588579.542439) can0 717#01000000CC0C6000
(1510588579.543127) can0 209#0000C0FF68011400
(1510588579.543361) can0 20B#0000C0FF68011400
(1510588579.543591) can0 229#B204A2000A00ECD1
(1510588579.543821) can0 22B#F504AC000B00ECD1
(1510588579.544060) can0 239#4541001700000000
(1510588579.544300) can0 23B#4541001700000000
(1510588579.544535) can0 249#667D890300002600
(1510588579.544770) can0 24B#667D890300002600
(1510588579.545016) can0 719#1900000000000000
(1510588579.545262) can0 71B#1800660600000000
(1510588579.551338) can0 217#000000007F020004
(1510588579.552939) can0 219#00807E0080020004
(1510588579.553183) can0 21B#00C07F0083020004
(1510588579.588076) can0 45C#0000093E00000000
(1510588579.588203) can0 10C#1A00
(1510588579.588357) can0 54B#1AFF
(1510588579.588488) can0 547#1AFF
(1510588579.588619) can0 549#1AFF
(1510588579.606553) can0 42C#0060000020000000
(1510588579.606764) can0 43C#0060000020000000
(1510588579.607010) can0 44C#0060000020000000
(1510588579.641483) can0 207#0000C0FF68011400
(1510588579.641709) can0 227#B60491000900ECD1
(1510588579.641951) can0 237#4641001700000000
(1510588579.642184) can0 247#667D890300002600
(1510588579.642429) can0 717#0200000000000000
(1510588579.643127) can0 209#0000000068011400
(1510588579.643368) can0 20B#0000C0FF68011400
(1510588579.643602) can0 229#B104A2000C00ECD1
(1510588579.643837) can0 22B#FC04A6000700ECD1
(1510588579.644077) can0 239#4541001700000000
(1510588579.644316) can0 23B#4541001700000000
(1510588579.644552) can0 249#667D890300002600
(1510588579.644787) can0 24B#667D890300002600
(1510588579.645029) can0 719#01000000CC0C6000
(1510588579.645277) can0 71B#1900000000000000
(1510588579.651291) can0 217#000000007F020004
(1510588579.652934) can0 219#00807E0080020004
(1510588579.653177) can0 21B#00C07F0083020004
(1510588579.688081) can0 45C#0000093E00000000
(1510588579.706520) can0 42C#0060000020000000
(1510588579.706765) can0 43C#0060000020000000
(1510588579.707012) can0 44C#0060000020000000
(1510588579.741387) can0 367#0000000000000000
(1510588579.741630) can0 207#0000000068011400
(1510588579.741864) can0 227#B90492000500ECD1
(1510588579.742107) can0 237#4641001700000000
(1510588579.742337) can0 247#667D890300002600
(1510588579.743089) can0 209#0000000068011400
(1510588579.743324) can0 20B#0000C0FF68011400
(1510588579.743550) can0 229#B9049C000B00ECD1
(1510588579.743788) can0 22B#FA04A7001300ECD1
(1510588579.744021) can0 239#4541001700000000
(1510588579.744262) can0 23B#4541001700000000
(1510588579.744497) can0 249#667D890300002600
(1510588579.744732) can0 24B#667D890300002600
(1510588579.744981) can0 719#0200000000000000
(1510588579.745222) can0 71B#01000000CC0C6000
(1510588579.751301) can0 217#000000007F020004
(1510588579.751535) can0 377#0000000000000000
(1510588579.752912) can0 219#00807E0080020004
(1510588579.753155) can0 21B#00C07F0083020004
(1510588579.761382) can0 347#0000000000000000
(1510588579.771377) can0 357#0000000000000000
(1510588579.781379) can0 327#0000000000000000
(1510588579.788083) can0 45C#0000093E00000000
(1510588579.788217) can0 10C#1B00
(1510588579.788366) can0 549#1BFF
(1510588579.788512) can0 547#1BFF
(1510588579.788623) can0 54B#1BFF
(1510588579.791372) can0 337#0000000000000000
(1510588579.806521) can0 42C#0060000020000000
(1510588579.806766) can0 43C#0060000020000000
(1510588579.807014) can0 44C#0060000020000000
(1510588579.841429) can0 207#0000C0FF68011400
(1510588579.841658) can0 227#C20493000200ECD1
(1510588579.841898) can0 237#4641001700000000
(1510588579.842131) can0 247#667D890300002600
(1510588579.842373) can0 717#040000000D090300
(1510588579.842985) can0 369#0000000000000000
(1510588579.843225) can0 209#0000C0FF68011400
(1510588579.843473) can0 20B#0000000068011400
(1510588579.843705) can0 229#BE04A1001600ECD1
(1510588579.843938) can0 22B#FE04A5000900ECD1
(1510588579.844178) can0 239#4541001700000000
(1510588579.844417) can0 23B#4541001700000000
(1510588579.844653) can0 249#667D890300002600
(1510588579.844890) can0 24B#667D890300002600
(1510588579.845137) can0 71B#0200000000000000
(1510588579.851243) can0 217#000000007F020004
(1510588579.852870) can0 219#00807E0080020004
(1510588579.853113) can0 21B#00C07F0083020004
(1510588579.853364) can0 379#0000000000000000
(1510588579.862971) can0 349#0000000000000000
(1510588579.872981) can0 359#0000000000000000
(1510588579.882984) can0 329#0000000000000000
(1510588579.888083) can0 45C#0000093E00000000
(1510588579.892978) can0 339#0000000000000000
(1510588579.906525) can0 42C#0060000020000000
(1510588579.906771) can0 43C#0060000020000000
(1510588579.907018) can0 44C#0060000020000000
(1510588579.941446) can0 207#0000000068011400
(1510588579.941672) can0 227#BB0494000A00ECD1
(1510588579.941910) can0 237#4641001700000000
(1510588579.942144) can0 247#667D890300002600
(1510588579.942389) can0 717#0500000000000000
(1510588579.943073) can0 209#0000C0FF68011400
(1510588579.943299) can0 229#C7049C000D00ECD1
(1510588579.943541) can0 20B#0000000068011400
(1510588579.943772) can0 22B#0205AD000A00ECD1
(1510588579.944016) can0 239#4541001700000000
(1510588579.944260) can0 23B#4541001700000000
(1510588579.944487) can0 249#667D890300002600
(1510588579.944724) can0 24B#667D890300002600
(1510588579.944971) can0 36B#0000000000000000
(1510588579.945211) can0 719#040000000D090300
(1510588579.951251) can0 217#000000007F020004
(1510588579.952875) can0 219#00807E0080020004
(1510588579.953119) can0 21B#00C07F0083020004
(1510588579.953366) can0 37B#0000000000000000
(1510588579.963154) can0 34B#0000000000000000
(1510588579.973155) can0 35B#0000000000000000
(1510588579.983154) can0 32B#0000000000000000
(1510588579.988088) can0 45C#0000093E00000000
(1510588579.988221) can0 10C#1C00
(1510588579.988373) can0 54B#1CFF
(1510588579.988506) can0 547#1CFF
(1510588579.988637) can0 549#1CFF
(1510588579.993144) can0 33B#0000000000000000
(1510588580.006560) can0 42C#0060000020000000
(1510588580.006776) can0 43C#0060000020000000
(1510588580.007022) can0 44C#0060000020000000
(1510588580.041397) can0 207#0000C0FF68011400
(1510588580.041625) can0 227#C50493000200ECD1
(1510588580.041864) can0 237#4641001700000000
(1510588580.042098) can0 247#667D890300002600
(1510588580.042333) can0 717#0600753999010040
(1510588580.043031) can0 209#0000000068011400
(1510588580.043273) can0 20B#0000C0FF68011400
(1510588580.043504) can0 229#CD04A3000A00ECD1
(1510588580.043736) can0 22B#0805A7000A00ECD1
(1510588580.043977) can0 239#4541001700000000
(1510588580.044216) can0 23B#4541001700000000
(1510588580.044451) can0 249#667D890300002600
(1510588580.044686) can0 24B#667D890300002600
(1510588580.044933) can0 719#0500000000000000
(1510588580.045177) can0 71B#040000000D090000
(1510588580.051222) can0 217#000000007F020004
(1510588580.052833) can0 219#00807E0080020004
(1510588580.053076) can0 21B#00C07F0083020004
(1510588580.088091) can0 45C#0000093E00000000
(1510588580.106566) can0 42C#0060000020000000
(1510588580.106778) can0 43C#0060000020000000
(1510588580.107023) can0 44C#0060000020000000
(1510588580.141373) can0 207#0000000068011400
(1510588580.141604) can0 227#C70487001300ECD1
(1510588580.141848) can0 237#4641001700000000
(1510588580.142075) can0 247#667D890300002600
(1510588580.142323) can0 717#0700000002260000
(1510588580.143039) can0 209#0000000068011400
(1510588580.143266) can0 20B#0000C0FF68011400
(1510588580.143495) can0 229#C904A0000D00ECD1
(1510588580.143733) can0 22B#0A05A5000C00ECD1
(1510588580.143974) can0 239#4541001700000000
(1510588580.144214) can0 23B#4541001700000000
(1510588580.144449) can0 249#667D890300002600
(1510588580.144685) can0 24B#667D890300002600
(1510588580.144919) can0 719#0600813999010040
(1510588580.145167) can0 71B#0500000000000000
(1510588580.151189) can0 217#000000007F020004
(1510588580.152832) can0 219#00807E0080020004
(1510588580.153074) can0 21B#00C07F0083020004
(1510588580.188096) can0 45C#0000093E00000000
(1510588580.188217) can0 10C#1D00
(1510588580.188371) can0 549#1DFF
(1510588580.188499) can0 547#1DFF
(1510588580.188632) can0 54B#1DFF
(1510588580.206534) can0 42C#0060000020000000
(1510588580.206777) can0 43C#0060000020000000
(1510588580.207025) can0 44C#0060000020000000
(1510588580.241359) can0 207#0000C0FF68011400
(1510588580.241589) can0 227#C50487000A00ECD1
(1510588580.241829) can0 237#4641001700000000
(1510588580.242062) can0 247#667D890300002600
(1510588580.242304) can0 717#0800000079390000
(1510588580.242976) can0 209#0000C0FF68011400
(1510588580.243222) can0 20B#0000000068011400
(1510588580.243453) can0 229#CB04A0000D00ECD1
(1510588580.243687) can0 22B#0F05AA000C00ECD1
(1510588580.243927) can0 239#4541001700000000
(1510588580.244167) can0 23B#4541001700000000
(1510588580.244403) can0 249#667D890300002600
(1510588580.244639) can0 24B#667D890300002600
(1510588580.244881) can0 719#0700000002260000
(1510588580.245118) can0 71B#0600413999010040
(1510588580.251174) can0 217#000000007F020004
(1510588580.252815) can0 219#00807E0080020004
(1510588580.253059) can0 21B#00C07F0083020004
(1510588580.288097) can0 45C#0000093E00000000
(1510588580.306538) can0 42C#0060000020000000
(1510588580.306781) can0 43C#0060000020000000
(1510588580.307029) can0 44C#0060000020000000
(1510588580.341333) can0 207#0000C0FF68011400
(1510588580.341562) can0 227#C40488000200ECD1
(1510588580.341804) can0 237#4641001700000000
(1510588580.342036) can0 247#667D890300002600
(1510588580.342284) can0 717#09003D3900000000
(1510588580.342964) can0 209#0000C0FF68011400
(1510588580.343197) can0 20B#0000C0FF68011400
(1510588580.343442) can0 229#CA049F000A00ECD1
(1510588580.343668) can0 22B#0C05A1000300ECD1
(1510588580.343906) can0 239#4541001700000000
(1510588580.344147) can0 23B#4541001700000000
(1510588580.344382) can0 249#667D890300002600
(1510588580.344618) can0 24B#667D890300002600
(1510588580.344858) can0 719#080000003D390000
(1510588580.345102) can0 71B#0700000002260000
(1510588580.351135) can0 217#000000007F020004
(1510588580.352777) can0 219#00807E0080020004
(1510588580.353020) can0 21B#00C07F0083020004
(1510588580.388101) can0 45C#0000093E00000000
(1510588580.388226) can0 10C#1E00
(1510588580.388378) can0 54B#1EFF
(1510588580.388515) can0 547#1EFF
(1510588580.388639) can0 549#1EFF
(1510588580.406542) can0 42C#0060000020000000
(1510588580.406780) can0 43C#0060000020000000
(1510588580.407029) can0 44C#0060000020000000
(1510588580.441308) can0 207#0000C0FF68011400
(1510588580.441537) can0 227#CF048F000C00ECD1
(1510588580.441777) can0 237#4641001700000000
(1510588580.442010) can0 247#667D890300002600
(1510588580.442256) can0 717#0A00000000000000
(1510588580.442973) can0 209#0000C0FF68011400
(1510588580.443213) can0 20B#0000C0FF68011400
(1510588580.443447) can0 229#D204A0000900ECD1
(1510588580.443679) can0 22B#1305A7000700ECD1
(1510588580.443919) can0 239#4541001700000000
(1510588580.444159) can0 23B#4541001700000000
(1510588580.444395) can0 249#667D890300002600
(1510588580.444631) can0 24B#667D890300002600
(1510588580.444869) can0 719#0900753900000000
(1510588580.445110) can0 71B#0800000071390000
(1510588580.451122) can0 217#000000007F020004
(1510588580.452771) can0 219#00807E0080020004
(1510588580.453012) can0 21B#00C07F0083020004
(1510588580.488104) can0 45C#0000093E00000000
(1510588580.506541) can0 42C#0060000020000000
(1510588580.506786) can0 43C#0060000020000000
(1510588580.507033) can0 44C#0060000020000000
(1510588580.541316) can0 207#0000000068011400
(1510588580.541549) can0 227#D00485000500ECD1
(1510588580.541786) can0 237#4641001700000000
(1510588580.542024) can0 247#667D890300002600
(1510588580.542267) can0 717#0B00000000000000
(1510588580.542925) can0 209#0000C0FF68011400
(1510588580.543161) can0 20B#0000C0FF68011400
(1510588580.543389) can0 229#DD04A6000500ECD1
(1510588580.543623) can0 22B#1305A3000C00ECD1
(1510588580.543863) can0 239#4541001700000000
(1510588580.544103) can0 23B#4541001700000000
(1510588580.544338) can0 249#667D890300002600
(1510588580.544574) can0 24B#667D890300002600
(1510588580.544820) can0 719#0A00000000000000
(1510588580.545066) can0 71B#0900413900000000
(1510588580.551114) can0 217#000000007F020004
(1510588580.552731) can0 219#00807E0080020004
(1510588580.552972) can0 21B#00C07F0083020004
(1510588580.588112) can0 45C#0000093E00000000
(1510588580.588234) can0 10C#1F00
(1510588580.588386) can0 549#1FFF
(1510588580.588519) can0 547#1FFF
(1510588580.588653) can0 54B#1FFF
(1510588580.606580) can0 42C#0060000020000000
(1510588580.606791) can0 43C#0060000020000000
(1510588580.607037) can0 44C#0060000020000000
(1510588580.641261) can0 207#0000000068011400
(1510588580.641488) can0 227#D20488000300ECD1
(1510588580.641728) can0 237#4641001700000000
(1510588580.641962) can0 247#667D890300002600
(1510588580.642200) can0 717#0C01000404060100
(1510588580.642910) can0 209#0000C0FF68011400
(1510588580.643151) can0 20B#0000C0FF68011400
(1510588580.643381) can0 229#D404A1000500ECD1
(1510588580.643613) can0 22B#1705A2000E00ECD1
(1510588580.643854) can0 239#4541001700000000
(1510588580.644093) can0 23B#4541001700000000
(1510588580.644329) can0 249#667D890300002600
(1510588580.644565) can0 24B#667D890300002600
(1510588580.644811) can0 719#0B00000000000000
(1510588580.645058) can0 71B#0A00000000000000
(1510588580.651065) can0 217#000000007F020004
(1510588580.652731) can0 219#00807E0080020004
(1510588580.652974) can0 21B#00C07F0083020004
(1510588580.688107) can0 45C#0000093E00000000
(1510588580.706547) can0 42C#0060000020000000
(1510588580.706791) can0 43C#0060000020000000
(1510588580.707038) can0 44C#0060000020000000
(1510588580.741158) can0 367#0000000000000000
(1510588580.741403) can0 207#0000000068011400
(1510588580.741635) can0 227#DD0484000300ECD1
(1510588580.741877) can0 237#4641001700000000
(1510588580.742115) can0 247#667D890300002600
(1510588580.742347) can0 717#0E00000266170000
(1510588580.742883) can0 209#0000000068011400
(1510588580.743117) can0 20B#0000C0FF68011400
(1510588580.743354) can0 229#E804AA001000ECD1
(1510588580.743628) can0 22B#1E05A0000900ECD1
(1510588580.743830) can0 239#4541001700000000
(1510588580.744094) can0 23B#4541001700000000
(1510588580.744308) can0 249#667D890300002600
(1510588580.744540) can0 24B#667D890300002600
(1510588580.744782) can0 719#0C01000404060100
(1510588580.745032) can0 71B#0B00000000000000
(1510588580.751072) can0 217#000000007F020004
(1510588580.751316) can0 377#0000000000000000
(1510588580.752711) can0 219#00807E0080020004
(1510588580.752954) can0 21B#00C07F0083020004
(1510588580.761157) can0 347#0000000000000000
(1510588580.771153) can0 357#0000000000000000
(1510588580.781157) can0 327#0000000000000000
(1510588580.788110) can0 45C#0000093E00000000
(1510588580.788236) can0 10C#2000
(1510588580.788388) can0 547#20FF
(1510588580.788524) can0 549#20FF
(1510588580.788658) can0 54B#20FF
(1510588580.791147) can0 337#0000000000000000
(1510588580.806551) can0 42C#0060000020000000
(1510588580.806793) can0 43C#0060000020000000
(1510588580.807042) can0 44C#0060000020000000
(1510588580.841229) can0 207#0000000068011400
(1510588580.841457) can0 227#DC0489000400ECD1
(1510588580.841699) can0 237#4641001700000000
(1510588580.841931) can0 247#667D890300002600
(1510588580.842167) can0 717#0F00C701500E0000
(1510588580.842790) can0 369#0000000000000000
(1510588580.843031) can0 209#0000C0FF68011400
(1510588580.843277) can0 20B#0000000068011400
(1510588580.843507) can0 229#E304A9001100ECD1
(1510588580.843747) can0 22B#2005A0000B00ECD1
(1510588580.843987) can0 239#4541001700000000
(1510588580.844226) can0 23B#4541001700000000
(1510588580.844461) can0 249#667D890300002600
(1510588580.844697) can0 24B#667D890300002600
(1510588580.844936) can0 719#0E00000266170000
(1510588580.845176) can0 71B#0C01000404060100
(1510588580.851050) can0 217#000000007F020004
(1510588580.852670) can0 219#00807E0080020004
(1510588580.852913) can0 21B#00C07F0083020004
(1510588580.853163) can0 379#0000000000000000
(1510588580.862790) can0 349#0000000000000000
(1510588580.872785) can0 359#0000000000000000
(1510588580.882772) can0 329#0000000000000000
(1510588580.888115) can0 45C#0000093E00000000
(1510588580.892762) can0 339#0000000000000000
(1510588580.906552) can0 42C#0060000020000000
(1510588580.906796) can0 43C#0060000020000000
(1510588580.907043) can0 44C#0060000020000000
(1510588580.941204) can0 207#0000000068011400
(1510588580.941435) can0 227#E10487000400ECD1
(1510588580.941679) can0 237#4641001700000000
(1510588580.941912) can0 247#667D890300002600
(1510588580.942154) can0 717#1001000017000000
(1510588580.942883) can0 209#0000000068011400
(1510588580.943106) can0 229#E404A4000A00ECD1
(1510588580.943378) can0 20B#0000C0FF68011400
(1510588580.943579) can0 22B#1E0599000800ECD1
(1510588580.943819) can0 239#4541001700000000
(1510588580.944060) can0 23B#4541001700000000
(1510588580.944334) can0 249#667D890300002600
(1510588580.944530) can0 24B#667D890300002600
(1510588580.944781) can0 36B#0000000000000000
(1510588580.945017) can0 719#0F00C7019B0E0000
(1510588580.945276) can0 71B#0E00000266170000
(1510588580.951012) can0 217#000000007F020004
(1510588580.952664) can0 219#00807E0080020004
(1510588580.952907) can0 21B#00C07F0083020004
(1510588580.953155) can0 37B#0000000000000000
(1510588580.962958) can0 34B#0000000000000000
(1510588580.972957) can0 35B#0000000000000000
(1510588580.982952) can0 32B#0000000000000000
(1510588580.988116) can0 45C#0000093E00000000
(1510588580.988240) can0 10C#2100
(1510588580.988390) can0 549#21FF
(1510588580.988526) can0 547#21FF
(1510588580.988655) can0 54B#21FF
(1510588580.992948) can0 33B#0000000000000000
(1510588581.006555) can0 42C#0060000020000000
(1510588581.006799) can0 43C#0060000020000000
(1510588581.007046) can0 44C#0060000020000000
(1510588581.041191) can0 207#0000000068011400
(1510588581.041419) can0 227#DD0487000A00ECD1
(1510588581.041660) can0 237#4641001700000000
(1510588581.041893) can0 247#667D890300002600
(1510588581.042133) can0 717#11009AFF00000202
(1510588581.042810) can0 209#0000C0FF68011400
(1510588581.043052) can0 20B#0000C0FF68011400
(1510588581.043282) can0 229#E804A6001300ECD1
(1510588581.043514) can0 22B#2705A3000900ECD1
(1510588581.043754) can0 239#4541001700000000
(1510588581.043993) can0 23B#4541001700000000
(1510588581.044229) can0 249#667D890300002600
(1510588581.044465) can0 24B#667D890300002600
(1510588581.044705) can0 719#10F50F0016000000
(1510588581.044942) can0 71B#0F00C701260E0000
(1510588581.050998) can0 217#000000007F020004
(1510588581.052624) can0 219#00807E0080020004
(1510588581.052867) can0 21B#00C07F0083020004
(1510588581.088118) can0 45C#0000093E00000000
(1510588581.106594) can0 42C#0060000020000000
(1510588581.106801) can0 43C#0060000020000000
(1510588581.107050) can0 44C#0060000020000000
(1510588581.141142) can0 207#0000C0FF68011400
(1510588581.141371) can0 227#E20485000400ECD1
(1510588581.141612) can0 237#4641001700000000
(1510588581.141839) can0 247#667D890300002600
(1510588581.142080) can0 717#1240290027001800
(1510588581.142802) can0 209#0000000068011400
(1510588581.143041) can0 20B#0000000068011400
(1510588581.143303) can0 229#F004AA000D00ECD1
(1510588581.143506) can0 22B#24059D000D00ECD1
(1510588581.143793) can0 239#4541001700000000
(1510588581.143988) can0 23B#4541001700000000
(1510588581.144254) can0 249#667D890300002600
(1510588581.144471) can0 24B#667D890300002600
(1510588581.144705) can0 719#11007FFF00000202
(1510588581.144943) can0 71B#10FF0F0018000000
(1510588581.150962) can0 217#000000007F020004
(1510588581.152615) can0 219#00807E0080020004
(1510588581.152860) can0 21B#00C07F0083020004
(1510588581.188122) can0 45C#0000093E00000000
(1510588581.188243) can0 10C#2200
(1510588581.188391) can0 547#22FF
(1510588581.188519) can0 549#22FF
(1510588581.188649) can0 54B#22FF
(1510588581.206562) can0 42C#0060000020000000
(1510588581.206805) can0 43C#0060000020000000
(1510588581.207053) can0 44C#0060000020000000
(1510588581.241161) can0 207#0000C0FF68011400
(1510588581.241392) can0 227#E60484000200ECD1
(1510588581.241633) can0 237#4641001700000000
(1510588581.241866) can0 247#667D890300002600
(1510588581.242114) can0 717#1300000000000000
(1510588581.242801) can0 209#0000000068011400
(1510588581.243041) can0 20B#0000C0FF68011400
(1510588581.243275) can0 229#EF04A6000500ECD1
(1510588581.243508) can0 22B#2E05A6000C00ECD1
(1510588581.243749) can0 239#4541001700000000
(1510588581.243988) can0 23B#4541001700000000
(1510588581.244224) can0 249#667D890300002600
(1510588581.244460) can0 24B#667D890300002600
(1510588581.244696) can0 719#123F290027001700
(1510588581.244937) can0 71B#110082FF00000202
(1510588581.250960) can0 217#000000007F020004
(1510588581.252606) can0 219#00807E0080020004
(1510588581.252850) can0 21B#00C07F0083020004
(1510588581.288129) can0 45C#0000093E00000000
(1510588581.306566) can0 42C#0060000020000000
(1510588581.306808) can0 43C#0060000020000000
(1510588581.307056) can0 44C#0060000020000000
(1510588581.341120) can0 207#0000C0FF68011400
(1510588581.341350) can0 227#E70488000400ECD1
(1510588581.341592) can0 237#4641001700000000
(1510588581.341824) can0 247#667D890300002600
(1510588581.342065) can0 717#14000000E9FF0000
(1510588581.342759) can0 209#0000C0FF68011400
(1510588581.342996) can0 20B#0000000068011400
(1510588581.343259) can0 229#F004A5000600ECD1
(1510588581.343458) can0 22B#2D05A7001500ECD1
(1510588581.343726) can0 239#4541001700000000
(1510588581.343939) can0 23B#4541001700000000
(1510588581.344174) can0 249#667D890300002600
(1510588581.344412) can0 24B#667D890300002600
(1510588581.344694) can0 719#1300000000000000
(1510588581.344898) can0 71B#1240290027001800
(1510588581.350943) can0 217#000000007F020004
(1510588581.352567) can0 219#00807E0080020004
(1510588581.352810) can0 21B#00C07F0083020004
(1510588581.388129) can0 45C#0000093E00000000
(1510588581.388250) can0 10C#2300
(1510588581.388400) can0 54B#23FF
(1510588581.388537) can0 547#23FF
(1510588581.388671) can0 549#23FF
(1510588581.406568) can0 42C#0060000020000000
(1510588581.406810) can0 43C#0060000020000000
(1510588581.407058) can0 44C#0060000020000000
(1510588581.441100) can0 207#0000000068011400
(1510588581.441327) can0 227#EF0489000200ECD1
(1510588581.441567) can0 237#4641001700000000
(1510588581.441801) can0 247#667D890300002600
(1510588581.442748) can0 209#0000C0FF68011400
(1510588581.442993) can0 20B#0000000068011400
(1510588581.443223) can0 229#F204AB000B00ECD1
(1510588581.443458) can0 22B#2D05A2000C00ECD1
(1510588581.443697) can0 239#4541001700000000
(1510588581.443936) can0 23B#4541001700000000
(1510588581.444172) can0 249#667D890300002600
(1510588581.444409) can0 24B#667D890300002600
(1510588581.444657) can0 719#1400000008000000
(1510588581.444904) can0 71B#1300000000000000
(1510588581.450894) can0 217#000000007F020004
(1510588581.452569) can0 219#00807E0080020004
(1510588581.452812) can0 21B#00C07F0083020004
(1510588581.488133) can0 45C#0000093E00000000
(1510588581.506571) can0 42C#0060000020000000
(1510588581.506815) can0 43C#0060000020000000
(1510588581.507063) can0 44C#0060000020000000
(1510588581.541094) can0 207#0000C0FF68011400
(1510588581.541317) can0 227#EE0489000300ECD1
(1510588581.541554) can0 237#4641001700000000
(1510588581.541788) can0 247#667D890300002600
(1510588581.542033) can0 717#1600000000008139
(1510588581.542722) can0 209#0000C0FF68011400
(1510588581.542951) can0 20B#0000C0FF68011400
(1510588581.543211) can0 229#F404A7000800ECD1
(1510588581.543422) can0 22B#3505AA000D00ECD1
(1510588581.543684) can0 239#4541001700000000
(1510588581.543900) can0 23B#4541001700000000
(1510588581.544134) can0 249#667D890300002600
(1510588581.544373) can0 24B#667D890300002600
(1510588581.544617) can0 71B#14000000FDFF0000
(1510588581.550904) can0 217#004000007F020004
(1510588581.552550) can0 219#00807E0080020004
(1510588581.552793) can0 21B#00C07F0083020004
(1510588581.588134) can0 45C#0000093E00000000
(1510588581.588257) can0 10C#2400
(1510588581.588410) can0 54B#24FF
(1510588581.588541) can0 547#24FF
(1510588581.588677) can0 549#24FF
(1510588581.606609) can0 42C#0060000020000000
(1510588581.606818) can0 43C#0060000020000000
(1510588581.607066) can0 44C#0060000020000000
(1510588581.641048) can0 207#0000C0FF68011400
(1510588581.641278) can0 227#F5048D001000ECD1
(1510588581.641518) can0 237#4641001700000000
(1510588581.641752) can0 247#667D890300002600
(1510588581.641994) can0 717#1700005001002001
(1510588581.642694) can0 209#0000C0FF68011400
(1510588581.642940) can0 20B#0000000068011400
(1510588581.643179) can0 229#0005B3000800ECD1
(1510588581.643412) can0 22B#3205A7001000ECD1
(1510588581.643653) can0 239#4541001700000000
(1510588581.643892) can0 23B#4541001700000000
(1510588581.644128) can0 249#667D890300002600
(1510588581.644364) can0 24B#667D890300002600
(1510588581.644605) can0 719#1600000000007939
(1510588581.650857) can0 217#000000007F020004
(1510588581.652507) can0 219#00807E0080020004
(1510588581.652749) can0 21B#00C07F0083020004
(1510588581.688137) can0 45C#0000093E00000000
(1510588581.706576) can0 42C#0060000020000000
(1510588581.706820) can0 43C#0060000020000000
(1510588581.707067) can0 44C#0060000020000000
(1510588581.740935) can0 367#0000000000000000
(1510588581.741180) can0 207#0000000068011400
(1510588581.741417) can0 227#F50487000C00ECD1
(1510588581.741656) can0 237#4641001700000000
(1510588581.741889) can0 247#667D890300002600
(1510588581.742130) can0 717#1800660600000000
(1510588581.742698) can0 209#0000000068011400
(1510588581.742946) can0 20B#0000000068011400
(1510588581.743182) can0 229#0105AD000C00ECD1
(1510588581.743414) can0 22B#3A05B0000D00ECD1
(1510588581.743651) can0 239#4541001700000000
(1510588581.743894) can0 23B#4541001700000000
(1510588581.744130) can0 249#667D890300002600
(1510588581.744367) can0 24B#667D890300002600
(1510588581.744604) can0 719#1700027001005001
(1510588581.744845) can0 71B#1600000000008D39
(1510588581.750858) can0 217#000000007F020004
(1510588581.751097) can0 377#0000000000000000
(1510588581.752500) can0 219#00807E0080020004
(1510588581.752744) can0 21B#00C07F0083020004
(1510588581.760944) can0 347#0000000000000000
(1510588581.770940) can0 357#0000000000000000
(1510588581.780940) can0 327#0000000000000000
(1510588581.788139) can0 45C#0000093E00000000
(1510588581.788263) can0 10C#2500
(1510588581.788410) can0 547#25FF
(1510588581.788540) can0 549#25FF
(1510588581.788674) can0 54B#25FF
(1510588581.790934) can0 337#0000000000000000
(1510588581.806579) can0 42C#0060000020000000
(1510588581.806823) can0 43C#0060000020000000
(1510588581.807070) can0 44C#0060000020000000
(1510588581.841005) can0 207#0000000068011400
(1510588581.841236) can0 227#00058D000900ECD1
(1510588581.841476) can0 237#4641001700000000
(1510588581.841709) can0 247#667D890300002600
(1510588581.841955) can0 717#1900000000000000
(1510588581.842581) can0 369#0000000000000000
(1510588581.842823) can0 209#0000C0FF68011400
(1510588581.843068) can0 20B#0000000068011400
(1510588581.843302) can0 229#FE04AE000D00ECD1
(1510588581.843535) can0 22B#4005AB000600ECD1
(1510588581.843775) can0 239#4541001700000000
(1510588581.844014) can0 23B#4541001700000000
(1510588581.844250) can0 249#667D890300002600
(1510588581.844487) can0 24B#667D890300002600
(1510588581.844733) can0 719#1800660600000000
(1510588581.844978) can0 71B#1700016001008001
(1510588581.850825) can0 217#000000007F020004
(1510588581.852471) can0 219#00807E0080020004
(1510588581.852714) can0 21B#00C07F0083020004
(1510588581.852965) can0 379#0000000000000000
(1510588581.862579) can0 349#0000000000000000
(1510588581.872584) can0 359#0000000000000000
(1510588581.882583) can0 329#0000000000000000
(1510588581.888139) can0 45C#0000093E00000000
(1510588581.892571) can0 339#0000000000000000
(1510588581.906583) can0 42C#0060000020000000
(1510588581.906829) can0 43C#0060000020000000
(1510588581.907073) can0 44C#0060000020000000
(1510588581.940983) can0 207#0000C0FF68011400
(1510588581.941215) can0 227#FA048E000400ECD1
(1510588581.941453) can0 237#4641001700000000
(1510588581.941682) can0 247#667D890300002600
(1510588581.941946) can0 717#01000000CC0C6000
(1510588581.942724) can0 209#0000000068011400
(1510588581.942894) can0 229#0305A8001000ECD1
(1510588581.943144) can0 20B#0000C0FF68011400
(1510588581.943385) can0 22B#3E05AC000600ECD1
(1510588581.943617) can0 239#4541001700000000
(1510588581.943855) can0 23B#4541001700000000
(1510588581.944091) can0 249#667D890300002600
(1510588581.944327) can0 24B#667D890300002600
(1510588581.944573) can0 36B#0000000000000000
(1510588581.944828) can0 719#1900000000000000
(1510588581.945068) can0 71B#1800660600000000
(1510588581.950785) can0 217#000000007F020004
(1510588581.952467) can0 219#00807E0080020004
(1510588581.952709) can0 21B#00C07F0083020004
(1510588581.952957) can0 37B#0000000000000000
(1510588581.962746) can0 34B#0000000000000000
(1510588581.972748) can0 35B#0000000000000000
(1510588581.982743) can0 32B#0000000000000000
(1510588581.988143) can0 45C#0000093E00000000
(1510588581.988270) can0 10C#2600
(1510588581.988418) can0 547#26FF
(1510588581.988549) can0 549#26FF
(1510588581.988680) can0 54B#26FF
(1510588581.992738) can0 33B#0000000000000000
(1510588582.006583) can0 42C#0060000020000000
(1510588582.006823) can0 43C#0060000020000000
(1510588582.007071) can0 44C#0060000020000000
(1510588582.040994) can0 207#0000000068011400
(1510588582.041223) can0 227#FF048C000900ECD1
(1510588582.041462) can0 237#4641001700000000
(1510588582.041696) can0 247#667D890300002600
(1510588582.041942) can0 717#0200000000000000
(1510588582.042617) can0 209#0000000068011400
(1510588582.042862) can0 20B#0000000068011400
(1510588582.043096) can0 229#0805B0000200ECD1
(1510588582.043331) can0 22B#4205AC000800ECD1
(1510588582.043571) can0 239#4541001700000000
(1510588582.043810) can0 23B#4541001700000000
(1510588582.044046) can0 249#667D890300002600
(1510588582.044283) can0 24B#667D890300002600
(1510588582.044524) can0 719#01000000CC0C6000
(1510588582.044771) can0 71B#1900000000000000
(1510588582.050787) can0 217#000000007F020004
(1510588582.052442) can0 219#00807E0080020004
(1510588582.052686) can0 21B#00C07F0083020004
(1510588582.088146) can0 45C#0000093E00000000
(1510588582.106618) can0 42C#0060000020000000
(1510588582.106844) can0 43C#0060000020000000
(1510588582.107079) can0 44C#0060000020000000
(1510588582.140937) can0 207#0000000068011400
(1510588582.141164) can0 227#03058D000300ECD1
(1510588582.141403) can0 237#4641001700000000
(1510588582.141637) can0 247#667D890300002600
(1510588582.142636) can0 209#0000C0FF68011400
(1510588582.142828) can0 20B#0000C0FF68011400
(1510588582.143061) can0 229#0E05AE000F00ECD1
(1510588582.143292) can0 22B#4905AF000400ECD1
(1510588582.143531) can0 239#4541001700000000
(1510588582.143773) can0 23B#4541001700000000
(1510588582.144010) can0 249#667D890300002600
(1510588582.144244) can0 24B#667D890300002600
(1510588582.144490) can0 719#0200000000000000
(1510588582.144738) can0 71B#01000000CC0C6000
(1510588582.150751) can0 217#000000007F020004
(1510588582.152401) can0 219#00807E0080020004
(1510588582.152642) can0 21B#00C07F0083020004
(1510588582.188150) can0 45C#0000093E00000000
(1510588582.188273) can0 10C#2700
(1510588582.188426) can0 549#27FF
(1510588582.188558) can0 547#27FF
(1510588582.188694) can0 54B#27FF
(1510588582.206588) can0 42C#0060000020000000
(1510588582.206831) can0 43C#0060000020000000
(1510588582.207078) can0 44C#0060000020000000
(1510588582.240925) can0 207#0000000068011400
(1510588582.241154) can0 227#07058E000F00ECD1
(1510588582.241394) can0 237#4641001700000000
(1510588582.241628) can0 247#667D890300002600
(1510588582.241872) can0 717#040000000D090500
(1510588582.242590) can0 209#0000000068011400
(1510588582.242836) can0 20B#0000000068011400
(1510588582.243068) can0 229#1005B2000B00ECD1
(1510588582.243298) can0 22B#5205AE000D00ECD1
(1510588582.243538) can0 239#4541001700000000
(1510588582.243778) can0 23B#4541001700000000
(1510588582.244013) can0 249#667D890300002600
(1510588582.244251) can0 24B#667D890300002600
(1510588582.244498) can0 71B#0200000000000000
(1510588582.250730) can0 217#000000007F020004
(1510588582.252405) can0 219#00807E0080020004
(1510588582.252648) can0 21B#00C07F0083020004
(1510588582.288154) can0 45C#0000093E00000000
(1510588582.306592) can0 42C#0060000020000000
(1510588582.306834) can0 43C#0060000020000000
(1510588582.307082) can0 44C#0060000020000000
(1510588582.340919) can0 207#0000000068011400
(1510588582.341151) can0 227#060592000800ECD1
(1510588582.341393) can0 237#4641001700000000
(1510588582.341630) can0 247#667D890300002600
(1510588582.341873) can0 717#0500000000000000
(1510588582.342565) can0 209#0000C0FF68011400
(1510588582.342800) can0 20B#0000000068011400
(1510588582.343063) can0 229#0E05B0000800ECD1
(1510588582.343269) can0 22B#5005AE000600ECD1
(1510588582.343509) can0 239#4541001700000000
(1510588582.343750) can0 23B#4541001700000000
(1510588582.344023) can0 249#667D890300002600
(1510588582.344222) can0 24B#667D890300002600
(1510588582.344468) can0 719#040000000D090200
(1510588582.350725) can0 217#000000007F020004
(1510588582.352367) can0 219#00807E0080020004
(1510588582.352609) can0 21B#00C07F0083020004
(1510588582.388156) can0 45C#0000093E00000000
(1510588582.388281) can0 10C#2800
(1510588582.388425) can0 547#28FF
(1510588582.388563) can0 549#28FF
(1510588582.388692) can0 54B#28FF
(1510588582.406595) can0 42C#0060000020000000
(1510588582.406837) can0 43C#0060000020000000
(1510588582.407085) can0 44C#0060000020000000
(1510588582.440858) can0 207#0000C0FF68011400
(1510588582.441091) can0 227#120590000A00ECD1
(1510588582.441331) can0 237#4641001700000000
(1510588582.441565) can0 247#667D890300002600
(1510588582.441803) can0 717#0600393999010040
(1510588582.442539) can0 209#0000000068011400
(1510588582.442781) can0 20B#0000C0FF68011400
(1510588582.443014) can0 229#1105AB001100ECD1
(1510588582.443245) can0 22B#5105B0000600ECD1
(1510588582.443485) can0 239#4541001700000000
(1510588582.443725) can0 23B#4541001700000000
(1510588582.443962) can0 249#667D890300002600
(1510588582.444197) can0 24B#667D890300002600
(1510588582.444443) can0 719#0500000000000000
(1510588582.444688) can0 71B#040000000D090100
(1510588582.450682) can0 217#000000007F020004
(1510588582.452359) can0 219#00807E0080020004
(1510588582.452603) can0 21B#00C07F0083020004
(1510588582.488161) can0 45C#0000093E00000000
(1510588582.506597) can0 42C#0060000020000000
(1510588582.506841) can0 43C#0060000020000000
(1510588582.507089) can0 44C#0060000020000000
(1510588582.540879) can0 207#0000000068011400
(1510588582.541110) can0 227#0C058C000800ECD1
(1510588582.541348) can0 237#4641001700000000
(1510588582.541602) can0 247#667D890300002600
(1510588582.541829) can0 717#0700000002260000
(1510588582.542516) can0 209#0000000068011400
(1510588582.542787) can0 20B#0000000068011400
(1510588582.542993) can0 229#1705B0000B00ECD1
(1510588582.543221) can0 22B#5105B1000600ECD1
(1510588582.543460) can0 239#4541001700000000
(1510588582.543706) can0 23B#4541001700000000
(1510588582.543969) can0 249#667D890300002600
(1510588582.544178) can0 24B#667D890300002600
(1510588582.544409) can0 719#0600793999010040
(1510588582.544655) can0 71B#0500000000000000
(1510588582.550679) can0 217#000000007F020004
(1510588582.552337) can0 219#00807E0080020004
(1510588582.552580) can0 21B#00C07F0083020004
(1510588582.588161) can0 45C#0000093E00000000
(1510588582.588285) can0 10C#2900
(1510588582.588433) can0 549#29FF
(1510588582.588570) can0 547#29FF
(1510588582.588697) can0 54B#29FF
(1510588582.606636) can0 42C#0060000020000000
(1510588582.606845) can0 43C#0060000020000000
(1510588582.607093) can0 44C#0060000020000000
(1510588582.640838) can0 207#0000000068011400
(1510588582.641066) can0 227#080594000B00ECD1
(1510588582.641306) can0 237#4641001700000000
(1510588582.641539) can0 247#667D890300002600
(1510588582.641781) can0 717#0800000079390000
(1510588582.642484) can0 209#0000C0FF68011400
(1510588582.642730) can0 20B#0000000068011400
(1510588582.642965) can0 229#1805AC001400ECD1
(1510588582.643201) can0 22B#5305B1000500ECD1
(1510588582.643440) can0 239#4541001700000000
(1510588582.643680) can0 23B#4541001700000000
(1510588582.643915) can0 249#667D890300002600
(1510588582.644152) can0 24B#667D890300002600
(1510588582.644393) can0 719#0700000002260000
(1510588582.644628) can0 71B#0600613999010040
(1510588582.650648) can0 217#000000007F020004
(1510588582.652306) can0 219#00807E0080020004
(1510588582.652548) can0 21B#00C07F0083020004
(1510588582.688163) can0 45C#0000093E00000000
(1510588582.706604) can0 42C#0060000020000000
(1510588582.706848) can0 43C#0060000020000000
(1510588582.707095) can0 44C#0060000020000000
(1510588582.740718) can0 367#0000000000000000
(1510588582.740959) can0 207#0000C0FF68011400
(1510588582.741199) can0 227#110593000C00ECD1
(1510588582.741433) can0 237#4641001700000000
(1510588582.741668) can0 247#667D890300002600
(1510588582.741948) can0 717#09007D3900000000
(1510588582.742501) can0 209#0000000068011400
(1510588582.742739) can0 20B#0000C0FF68011400
(1510588582.743008) can0 229#1205AF000A00ECD1
(1510588582.743205) can0 22B#5D05B0000D00ECD1
(1510588582.743457) can0 239#4541001700000000
(1510588582.743687) can0 23B#4541001700000000
(1510588582.743934) can0 249#667D890300002600
(1510588582.744161) can0 24B#667D890300002600
(1510588582.744401) can0 719#080000007D390000
(1510588582.744660) can0 71B#0700000002260000
(1510588582.750622) can0 217#000000007F020004
(1510588582.750862) can0 377#0000000000000000
(1510588582.752302) can0 219#00807E0080020004
(1510588582.752546) can0 21B#00C07F0083020004
(1510588582.760703) can0 347#0000000000000000
(1510588582.770712) can0 357#0000000000000000
(1510588582.780728) can0 327#0000000000000000
(1510588582.788164) can0 45C#0000093E00000000
(1510588582.788292) can0 10C#2A00
(1510588582.788445) can0 54B#2AFF
(1510588582.788582) can0 547#2AFF
(1510588582.788709) can0 549#2AFF
(1510588582.790710) can0 337#0000000000000000
(1510588582.806606) can0 42C#0060000020000000
(1510588582.806850) can0 43C#0060000020000000
(1510588582.807097) can0 44C#0060000020000000
(1510588582.840874) can0 207#0000000068011400
(1510588582.841035) can0 227#170595001000ECD1
(1510588582.841289) can0 237#4641001700000000
(1510588582.841514) can0 247#667D890300002600
(1510588582.841756) can0 717#0A00000000000000
(1510588582.842378) can0 369#0000000000000000
(1510588582.842620) can0 209#0000C0FF68011400
(1510588582.842863) can0 20B#0000C0FF68011400
(1510588582.843094) can0 229#2105AB000C00ECD1
(1510588582.843325) can0 22B#6505B4000D00ECD1
(1510588582.843564) can0 239#4541001700000000
(1510588582.843806) can0 23B#4541001700000000
(1510588582.844042) can0 249#667D890300002600
(1510588582.844285) can0 24B#667D890300002600
(1510588582.844515) can0 719#0900753900000000
(1510588582.844757) can0 71B#0800000051390000
(1510588582.850699) can0 217#000000007F020004
(1510588582.852325) can0 219#00807E0080020004
(1510588582.852519) can0 21B#00C07F0083020004
(1510588582.852770) can0 379#0000000000000000
(1510588582.862423) can0 349#0000000000000000
(1510588582.872459) can0 359#0000000000000000
(1510588582.882429) can0 329#0000000000000000
(1510588582.888210) can0 45C#0000093E00000000
(1510588582.892415) can0 339#0000000000000000
(1510588582.906626) can0 42C#0060000020000000
(1510588582.906851) can0 43C#0060000020000000
(1510588582.907098) can0 44C#0060000020000000
(1510588582.940781) can0 207#0000C0FF68011400
(1510588582.940982) can0 227#160593000500ECD1
(1510588582.941230) can0 237#4641001700000000
(1510588582.941464) can0 247#667D890300002600
(1510588582.941703) can0 717#0B00000000000000
(1510588582.942434) can0 209#0000C0FF68011400
(1510588582.942662) can0 229#1C05AC001300ECD1
(1510588582.942898) can0 20B#0000C0FF68011400
(1510588582.943133) can0 22B#6105AF000700ECD1
(1510588582.943371) can0 239#4541001700000000
(1510588582.943610) can0 23B#4541001700000000
(1510588582.943860) can0 249#667D890300002600
(1510588582.944091) can0 24B#667D890300002600
(1510588582.944351) can0 36B#0000000000000000
(1510588582.944577) can0 719#0A00000000000000
(1510588582.944819) can0 71B#0900513900000000
(1510588582.950634) can0 217#000000007F020004
(1510588582.952282) can0 219#00807E0080020004
(1510588582.952488) can0 21B#00C07F0083020004
(1510588582.952742) can0 37B#0000000000000000
(1510588582.962817) can0 34B#0000000000000000
(1510588582.972584) can0 35B#0000000000000000
(1510588582.982599) can0 32B#0000000000000000
(1510588582.988205) can0 45C#0000093E00000000
(1510588582.988285) can0 10C#2B00
(1510588582.988446) can0 547#2BFF
(1510588582.988580) can0 549#2BFF
(1510588582.988720) can0 54B#2BFF
(1510588582.992551) can0 33B#0000000000000000
(1510588583.006631) can0 42C#0060000020000000
(1510588583.006854) can0 43C#0060000020000000
(1510588583.007098) can0 44C#0060000020000000
(1510588583.040779) can0 207#0000C0FF68011400
(1510588583.041000) can0 227#150592000900ECD1
(1510588583.041215) can0 237#4641001700000000
(1510588583.041448) can0 247#667D890300002600
(1510588583.041686) can0 717#0C01000404060100
(1510588583.042427) can0 209#0000000068011400
(1510588583.042666) can0 20B#0000C0FF68011400
(1510588583.042905) can0 229#1F05AC000600ECD1
(1510588583.043140) can0 22B#6305B5000500ECD1
(1510588583.043381) can0 239#4541001700000000
(1510588583.043625) can0 23B#4541001700000000
(1510588583.043862) can0 249#667D890300002600
(1510588583.044091) can0 24B#667D890300002600
(1510588583.044336) can0 719#0B00000000000000
(1510588583.044585) can0 71B#0A00000000000000
(1510588583.050599) can0 217#000000007F020004
(1510588583.052244) can0 219#00807E0080020004
(1510588583.052483) can0 21B#00C07F0083020004
(1510588583.088222) can0 45C#0000093E00000000
(1510588583.106654) can0 42C#0060000020000000
(1510588583.106858) can0 43C#0060000020000000
(1510588583.107108) can0 44C#0060000020000000
(1510588583.140715) can0 207#0000C0FF68011400
(1510588583.140938) can0 227#150595000B00ECD1
(1510588583.141182) can0 237#4641001700000000
(1510588583.141409) can0 247#667D890300002600
(1510588583.141659) can0 717#0E000002C6200000
(1510588583.142405) can0 209#0000C0FF68011400
(1510588583.142632) can0 20B#0000C0FF68011400
(1510588583.142867) can0 229#2605AF000200ECD1
(1510588583.143096) can0 22B#6605B2000700ECD1
(1510588583.143333) can0 239#4541001700000000
(1510588583.143578) can0 23B#4541001700000000
(1510588583.143828) can0 249#667D890300002600
(1510588583.144047) can0 24B#667D890300002600
(1510588583.144304) can0 719#0C01000404060100
(1510588583.144537) can0 71B#0B00000000000000
(1510588583.150561) can0 217#004000007F020004
(1510588583.152203) can0 219#00807E0080020004
(1510588583.152445) can0 21B#00C07F0083020004
(1510588583.188178) can0 45C#0000093E00000000
(1510588583.188301) can0 10C#2C00
(1510588583.188449) can0 549#2CFF
(1510588583.188586) can0 547#2CFF
(1510588583.188715) can0 54B#2CFF
(1510588583.206618) can0 42C#0060000020000000
(1510588583.206860) can0 43C#0060000020000000
(1510588583.207108) can0 44C#0060000020000000
(1510588583.240704) can0 207#0000000068011400
(1510588583.240934) can0 227#1E0593000900ECD1
(1510588583.241173) can0 237#4641001700000000
(1510588583.241407) can0 247#667D890300002600
(1510588583.241643) can0 717#0F00C701CD0B0000
(1510588583.242391) can0 209#0000000068011400
(1510588583.242632) can0 20B#0000C0FF68011400
(1510588583.242867) can0 229#1E05AE000800ECD1
(1510588583.243098) can0 22B#6605AE001100ECD1
(1510588583.243338) can0 239#4541001700000000
(1510588583.243577) can0 23B#4541001700000000
(1510588583.243813) can0 249#667D890300002600
(1510588583.244050) can0 24B#667D890300002600
(1510588583.244289) can0 719#0E000002C6200000
(1510588583.244530) can0 71B#0C01000404060100
(1510588583.250505) can0 217#004000007F020004
(1510588583.252197) can0 219#00807E0080020004
(1510588583.252441) can0 21B#00C07F0083020004
(1510588583.288179) can0 45C#0000093E00000000
(1510588583.306621) can0 42C#0060000020000000
(1510588583.306864) can0 43C#0060000020000000
(1510588583.307111) can0 44C#0060000020000000
(1510588583.340688) can0 207#0000C0FF68011400
(1510588583.340916) can0 227#240597000A00ECD1
(1510588583.341153) can0 237#4641001700000000
(1510588583.341387) can0 247#667D890300002600
(1510588583.341633) can0 717#1001000017000000
(1510588583.342357) can0 209#0000C0FF68011400
(1510588583.342607) can0 20B#0000000068011400
(1510588583.342859) can0 229#2605B0001000ECD1
(1510588583.343055) can0 22B#6605AB000600ECD1
(1510588583.343295) can0 239#4541001700000000
(1510588583.343537) can0 23B#4541001700000000
(1510588583.343772) can0 249#667D890300002600
(1510588583.344013) can0 24B#667D890300002600
(1510588583.344248) can0 719#0F00C7019E0E0000
(1510588583.344490) can0 71B#0E000002C6200000
(1510588583.350515) can0 217#004000007F020004
(1510588583.352181) can0 219#00807E0080020004
(1510588583.352424) can0 21B#00C07F0083020004
(1510588583.388184) can0 45C#0000093E00000000
(1510588583.388307) can0 10C#2D00
(1510588583.388455) can0 54B#2DFF
(1510588583.388586) can0 547#2DFF
(1510588583.388722) can0 549#2DFF
(1510588583.406623) can0 42C#0060000020000000
(1510588583.406867) can0 43C#0060000020000000
(1510588583.407114) can0 44C#0060000020000000
(1510588583.440640) can0 207#0000C0FF68011400
(1510588583.440875) can0 227#20059A001A00ECD1
(1510588583.441116) can0 237#4641001700000000
(1510588583.441350) can0 247#667D890300002600
(1510588583.441590) can0 717#11008BFF00000202
(1510588583.442323) can0 209#0000C0FF68011400
(1510588583.442564) can0 20B#0000C0FF68011400
(1510588583.442799) can0 229#2005A9000700ECD1
(1510588583.443029) can0 22B#6D05AF000E00ECD1
(1510588583.443269) can0 239#4541001700000000
(1510588583.443509) can0 23B#4541001700000000
(1510588583.443744) can0 249#667D890300002600
(1510588583.443980) can0 24B#667D890300002600
(1510588583.444219) can0 719#10F50F0016000000
(1510588583.444456) can0 71B#0F00C701940B0000
(1510588583.450454) can0 217#004000007F020004
