(1510873681.388603) can0 5E7#003F070100000001
(1510873681.388793) can0 5EB#003F070100000001
(1510873681.389040) can0 5E9#003F070100000001
(1510873681.511208) can0 217#000000006E020004
(1510873681.511434) can0 21B#0000000070020004
(1510873681.511674) can0 219#00C07F006F020004
(1510873681.584025) can0 45C#0000093E00000000
(1510873681.592186) can0 42C#0060000020010000
(1510873681.592429) can0 43C#0060000020010000
(1510873681.592670) can0 44C#0060000020010000
(1510873681.602219) can0 42C#0060000020000000
(1510873681.602463) can0 43C#0060000020000000
(1510873681.602711) can0 44C#0060000020000000
(1510873681.683807) can0 45C#0000093E00000000
(1510873681.683932) can0 10C#0100
(1510873681.702237) can0 42C#0060000020000000
(1510873681.702477) can0 43C#0060000020000000
(1510873681.702724) can0 44C#0060000020000000
(1510873681.725568) can0 5E7#003F070100000001
(1510873681.783841) can0 45C#0000093E00000000
(1510873681.802254) can0 42C#0060000020000000
(1510873681.802475) can0 43C#0060000020000000
(1510873681.802727) can0 44C#0060000020000000
(1510873681.826872) can0 5E9#003F070100000001
(1510873681.848217) can0 217#000000006E020004
(1510873681.883813) can0 45C#0000093E00000000
(1510873681.883943) can0 10C#0200
(1510873681.884100) can0 547#02FF
(1510873681.902271) can0 42C#0060000020000000
(1510873681.902502) can0 43C#0060000020000000
(1510873681.902730) can0 44C#0060000020000000
(1510873681.927446) can0 5EB#003F070100000001
(1510873681.938408) can0 207#0000C0FF00040400
(1510873681.938625) can0 227#8B009300E100ECD1
(1510873681.938871) can0 237#4441001700000000
(1510873681.939114) can0 247#007D890300002600
(1510873681.939360) can0 717#0200000000000000
(1510873681.948210) can0 217#000000007D020004
(1510873681.949530) can0 219#00C07F006F020004
(1510873681.983813) can0 45C#0000093E00000000
(1510873682.002240) can0 42C#0060000020000000
(1510873682.002483) can0 43C#0060000020000000
(1510873682.002732) can0 44C#0060000020000000
(1510873682.038364) can0 207#0000C0FF68051400
(1510873682.038604) can0 227#A5008F00D900ECD1
(1510873682.038835) can0 237#4441001700000000
(1510873682.039070) can0 247#667D890300002600
(1510873682.039748) can0 209#0002800000040400
(1510873682.039960) can0 229#AC00A7001201ECD1
(1510873682.040193) can0 239#4441001700000000
(1510873682.040430) can0 249#007D890300002600
(1510873682.040677) can0 719#0200000000000000
(1510873682.048214) can0 217#000000007D020004
(1510873682.049530) can0 219#00C07F007E020004
(1510873682.050131) can0 21B#00C07F0070020004
(1510873682.083812) can0 45C#0000093E00000000
(1510873682.083938) can0 10C#0300
(1510873682.084093) can0 547#03FF
(1510873682.084226) can0 549#03FF
(1510873682.084392) can0 54B#03FF
(1510873682.102244) can0 42C#0060000020000000
(1510873682.102486) can0 43C#0060000020000000
(1510873682.102734) can0 44C#0060000020000000
(1510873682.138364) can0 207#0000C0FF68071400
(1510873682.138590) can0 227#BA008300BF00ECD1
(1510873682.138845) can0 237#4441001700000000
(1510873682.139068) can0 247#667D890300002600
(1510873682.139311) can0 717#040000000D090400
(1510873682.139686) can0 209#0002800068071400
(1510873682.139918) can0 229#C900A8001101ECD1
(1510873682.140157) can0 239#4441001700000000
(1510873682.140405) can0 20B#0000000000040400
(1510873682.140635) can0 22B#AD009C000E01ECD1
(1510873682.140885) can0 23B#4441001700000000
(1510873682.141112) can0 249#667D890300002600
(1510873682.141350) can0 24B#007D890300002600
(1510873682.141598) can0 71B#0200000000000000
(1510873682.148175) can0 217#000000007D020004
(1510873682.149488) can0 219#00807F007E020004
(1510873682.150136) can0 21B#0000000080020004
(1510873682.183817) can0 45C#0000093E00000000
(1510873682.202249) can0 42C#0060000020000000
(1510873682.202491) can0 43C#0060000020000000
(1510873682.202739) can0 44C#0060000020000000
(1510873682.238319) can0 207#0000C0FF68051400
(1510873682.238554) can0 227#D9007F00A700ECD1
(1510873682.238790) can0 237#4441001700000000
(1510873682.239023) can0 247#667D890300002600
(1510873682.239271) can0 717#0500000000000000
(1510873682.239663) can0 209#0002800068071400
(1510873682.239897) can0 229#DC00AB000201ECD1
(1510873682.240138) can0 239#4441001700000000
(1510873682.240385) can0 20B#0000000068071400
(1510873682.240619) can0 22B#D800AD000001ECD1
(1510873682.240859) can0 23B#4441001700000000
(1510873682.241094) can0 249#667D890300002600
(1510873682.241329) can0 24B#667D890300002600
(1510873682.241569) can0 719#040000000D092B00
(1510873682.248182) can0 217#000000007D020004
(1510873682.249484) can0 219#00807F007E020004
(1510873682.250114) can0 21B#00C07F0080020004
(1510873682.283855) can0 45C#0000093E00000000
(1510873682.283949) can0 10C#0400
(1510873682.284098) can0 54B#04FF
(1510873682.284236) can0 547#04FF
(1510873682.284395) can0 549#04FF
(1510873682.302257) can0 42C#0060000020000000
(1510873682.302494) can0 43C#0060000020000000
(1510873682.302741) can0 44C#0060000020000000
(1510873682.338293) can0 207#0000C0FF68051400
(1510873682.338524) can0 227#F40088009B00ECD1
(1510873682.338768) can0 237#4441001700000000
(1510873682.339000) can0 247#667D890300002600
(1510873682.339233) can0 717#0600CD3899010040
(1510873682.339671) can0 209#0002800068051400
(1510873682.339900) can0 229#FD00B200D600ECD1
(1510873682.340141) can0 239#4441001700000000
(1510873682.340385) can0 20B#0000000068071400
(1510873682.340615) can0 22B#F300AC00ED00ECD1
(1510873682.340857) can0 23B#4441001700000000
(1510873682.341091) can0 249#667D890300002600
(1510873682.341329) can0 24B#667D890300002600
(1510873682.341574) can0 719#0500000000000000
(1510873682.341818) can0 71B#040000000D090100
(1510873682.348106) can0 217#000000007D020004
(1510873682.349469) can0 219#00407F007E020004
(1510873682.350083) can0 21B#00C07F0080020004
(1510873682.383819) can0 45C#0000093E00000000
(1510873682.402253) can0 42C#0060000020000000
(1510873682.402495) can0 43C#0060000020000000
(1510873682.402744) can0 44C#0060000020000000
(1510873682.438298) can0 207#0000C0FF68051400
(1510873682.438528) can0 227#07018F009000ECD1
(1510873682.438776) can0 237#4441001700000000
(1510873682.439005) can0 247#667D890300002600
(1510873682.439256) can0 717#0700000002260000
(1510873682.439622) can0 209#0002800068051400
(1510873682.439851) can0 229#1A01B700A300ECD1
(1510873682.440096) can0 239#4441001700000000
(1510873682.440334) can0 20B#0000C0FF68071400
(1510873682.440565) can0 22B#06019E00CD00ECD1
(1510873682.440802) can0 23B#4441001700000000
(1510873682.441037) can0 249#667D890300002600
(1510873682.441271) can0 24B#667D890300002600
(1510873682.441506) can0 719#0600C93799010040
(1510873682.441753) can0 71B#0500000000000000
(1510873682.448119) can0 217#000000007D020004
(1510873682.449427) can0 219#00407F007E020004
(1510873682.450080) can0 21B#00C07F0080020004
(1510873682.483827) can0 45C#0000093E00000000
(1510873682.483955) can0 10C#0500
(1510873682.484103) can0 547#05FF
(1510873682.484238) can0 549#05FF
(1510873682.484384) can0 54B#05FF
(1510873682.502265) can0 42C#0060000020000000
(1510873682.502495) can0 43C#0060000020000000
(1510873682.502744) can0 44C#0060000020000000
(1510873682.538259) can0 207#0000C0FF68051400
(1510873682.538489) can0 227#2A0188008100ECD1
(1510873682.538734) can0 237#4441001700000000
(1510873682.538968) can0 247#667D890300002600
(1510873682.539210) can0 717#0800000095390000
(1510873682.539624) can0 209#0002400068051400
(1510873682.539854) can0 229#2E01AD00A300ECD1
(1510873682.540093) can0 239#4441001700000000
(1510873682.540338) can0 20B#0000C0FF68051400
(1510873682.540571) can0 22B#19019100D400ECD1
(1510873682.540810) can0 23B#4441001700000000
(1510873682.541046) can0 249#667D890300002600
(1510873682.541284) can0 24B#667D890300002600
(1510873682.541527) can0 719#0700000002260000
(1510873682.541760) can0 71B#06005D3999010040
(1510873682.548074) can0 217#000000007D020004
(1510873682.549432) can0 219#00407F007E020004
(1510873682.550038) can0 21B#00C07F0080020004
(1510873682.583843) can0 45C#0000093E00000000
(1510873682.602260) can0 42C#0060000020000000
(1510873682.602502) can0 43C#0060000020000000
(1510873682.602749) can0 44C#0060000020000000
(1510873682.638245) can0 207#0000C0FF68051400
(1510873682.638471) can0 227#3E017A007200ECD1
(1510873682.638714) can0 237#4441001700000000
(1510873682.638949) can0 247#667D890300002600
(1510873682.639186) can0 717#09008D3900000000
(1510873682.639586) can0 209#0002400068051400
(1510873682.639813) can0 229#4D01AD00A800ECD1
(1510873682.640054) can0 239#4441001700000000
(1510873682.640296) can0 20B#0000C0FF68051400
(1510873682.640523) can0 22B#4A01B200B200ECD1
(1510873682.640764) can0 23B#4441001700000000
(1510873682.641000) can0 249#667D890300002600
(1510873682.641236) can0 24B#667D890300002600
(1510873682.641481) can0 719#080000001D380000
(1510873682.641727) can0 71B#0700000002260000
(1510873682.648090) can0 217#000000007D020004
(1510873682.649425) can0 219#00007F007E020004
(1510873682.650041) can0 21B#00C07F0080020004
(1510873682.683838) can0 45C#0000093E00000000
(1510873682.683953) can0 10C#0600
(1510873682.684106) can0 54B#06FF
(1510873682.684240) can0 547#06FF
(1510873682.684381) can0 549#06FF
(1510873682.702265) can0 42C#0060000020000000
(1510873682.702504) can0 43C#0060000020000000
(1510873682.702751) can0 44C#0060000020000000
(1510873682.738212) can0 207#0000C0FF68031400
(1510873682.738438) can0 227#610182006600ECD1
(1510873682.738679) can0 237#4441001700000000
(1510873682.738913) can0 247#667D890300002600
(1510873682.739158) can0 717#0A00000000000000
(1510873682.739561) can0 209#0001400068051400
(1510873682.739790) can0 229#6801AE009800ECD1
(1510873682.740030) can0 239#4441001700000000
(1510873682.740275) can0 20B#0000C0FF68051400
(1510873682.740505) can0 22B#5C01AC009C00ECD1
(1510873682.740745) can0 23B#4441001700000000
(1510873682.740982) can0 249#667D890300002600
(1510873682.741217) can0 24B#667D890300002600
(1510873682.741462) can0 719#0900013800000000
(1510873682.741705) can0 71B#0800000055390000
(1510873682.748042) can0 217#000000007D020004
(1510873682.749374) can0 219#00007F007E020004
(1510873682.750020) can0 21B#00C07F0080020004
(1510873682.783867) can0 45C#0000093E00000000
(1510873682.802277) can0 42C#0060000020000000
(1510873682.802505) can0 43C#0060000020000000
(1510873682.802753) can0 44C#0060000020000000
(1510873682.838126) can0 367#0000000000000000
(1510873682.838360) can0 207#0000C0FF68031400
(1510873682.838593) can0 227#7B0186006000ECD1
(1510873682.838845) can0 237#4441001700000000
(1510873682.839070) can0 247#667D890300002600
(1510873682.839316) can0 717#0B00000000000000
(1510873682.839559) can0 209#0001400068031400
(1510873682.839792) can0 229#8201B800B200ECD1
(1510873682.840032) can0 239#4441001700000000
(1510873682.840277) can0 20B#0000000068051400
(1510873682.840511) can0 22B#7601A4008800ECD1
(1510873682.840751) can0 23B#4441001700000000
(1510873682.840985) can0 249#667D890300002600
(1510873682.841220) can0 24B#667D890300002600
(1510873682.841469) can0 719#0A00000000000000
(1510873682.841710) can0 71B#0900553900000000
(1510873682.848038) can0 217#000000007D020004
(1510873682.848267) can0 377#0000000000000000
(1510873682.849367) can0 219#00007F007E020004
(1510873682.849980) can0 21B#00C07F0080020004
(1510873682.858130) can0 347#0000000000000000
(1510873682.868113) can0 357#0000000000000000
(1510873682.878110) can0 327#0000000000000000
(1510873682.883833) can0 45C#0000093E00000000
(1510873682.883964) can0 10C#0700
(1510873682.884121) can0 547#07FF
(1510873682.884254) can0 549#07FF
(1510873682.884373) can0 54B#07FF
(1510873682.888081) can0 337#0000000000000000
(1510873682.902265) can0 42C#0060000020000000
(1510873682.902509) can0 43C#0060000020000000
(1510873682.902756) can0 44C#0060000020000000
(1510873682.938202) can0 207#0000C0FF68031400
(1510873682.938421) can0 227#97018F005D00ECD1
(1510873682.938666) can0 237#4441001700000000
(1510873682.938900) can0 247#667D890300002600
(1510873682.939138) can0 717#0C01000404060100
(1510873682.939447) can0 369#0000000000000000
(1510873682.939690) can0 209#0001400068031400
(1510873682.939918) can0 229#9701B200A600ECD1
(1510873682.940163) can0 20B#0000000068051400
(1510873682.940390) can0 22B#8B0195008500ECD1
(1510873682.940630) can0 239#4441001700000000
(1510873682.940870) can0 23B#4441001700000000
(1510873682.941107) can0 249#667D890300002600
(1510873682.941342) can0 24B#667D890300002600
(1510873682.941588) can0 719#0B00000000000000
(1510873682.941836) can0 71B#0A00000000000000
(1510873682.948006) can0 217#000000007D020004
(1510873682.949334) can0 219#00007F007E020004
(1510873682.949589) can0 379#0000000000000000
(1510873682.949972) can0 21B#00C07F0080020004
(1510873682.959449) can0 349#0000000000000000
(1510873682.969448) can0 359#0000000000000000
(1510873682.979446) can0 329#0000000000000000
(1510873682.983835) can0 45C#0000093E00000000
(1510873682.989432) can0 339#0000000000000000
(1510873683.002267) can0 42C#0060000020000000
(1510873683.002511) can0 43C#0060000020000000
(1510873683.002758) can0 44C#0060000020000000
(1510873683.038146) can0 207#0000C0FF68031400
(1510873683.038375) can0 227#AB0184003F00ECD1
(1510873683.038619) can0 237#4441001700000000
(1510873683.038855) can0 247#667D890300002600
(1510873683.039106) can0 717#0E000002A6040000
(1510873683.039599) can0 209#0001400068031400
(1510873683.039755) can0 229#B801B0008D00ECD1
(1510873683.040004) can0 239#4441001700000000
(1510873683.040231) can0 249#667D890300002600
(1510873683.040474) can0 20B#0000000068031400
(1510873683.040711) can0 22B#A70196007200ECD1
(1510873683.040963) can0 23B#4441001700000000
(1510873683.041183) can0 24B#667D890300002600
(1510873683.041430) can0 36B#0000000000000000
(1510873683.041671) can0 719#0C01000404060100
(1510873683.041918) can0 71B#0B00000000000000
(1510873683.048004) can0 217#000000007D020004
(1510873683.049337) can0 219#00007F007E020004
(1510873683.049937) can0 21B#0000000081020004
(1510873683.050184) can0 37B#0000000000000000
(1510873683.060053) can0 34B#0000000000000000
(1510873683.070054) can0 35B#0000000000000000
(1510873683.080043) can0 32B#0000000000000000
(1510873683.083837) can0 45C#0000093E00000000
(1510873683.083968) can0 10C#0800
(1510873683.084115) can0 547#08FF
(1510873683.084249) can0 549#08FF
(1510873683.084369) can0 54B#08FF
(1510873683.090040) can0 33B#0000000000000000
(1510873683.102274) can0 42C#0060000020000000
(1510873683.102515) can0 43C#0060000020000000
(1510873683.102763) can0 44C#0060000020000000
(1510873683.138122) can0 207#0000C0FF68031400
(1510873683.138352) can0 227#C9017C004300ECD1
(1510873683.138597) can0 237#4441001700000000
(1510873683.138833) can0 247#667D890300002600
(1510873683.139066) can0 717#0F00C601C50B0000
(1510873683.139479) can0 209#0001400068031400
(1510873683.139705) can0 229#C301A5008500ECD1
(1510873683.139948) can0 239#4441001700000000
(1510873683.140185) can0 20B#0000C0FF68031400
(1510873683.140416) can0 22B#C6019B006800ECD1
(1510873683.140656) can0 23B#4441001700000000
(1510873683.140892) can0 249#667D890300002600
(1510873683.141128) can0 24B#667D890300002600
(1510873683.141368) can0 719#0E000002A6040000
(1510873683.141610) can0 71B#0C01000404060100
(1510873683.147931) can0 217#004000007D020004
(1510873683.149307) can0 219#00C07E007E020004
(1510873683.149922) can0 21B#00C07F0081020004
(1510873683.183849) can0 45C#0000093E00000000
(1510873683.202275) can0 42C#0060000020000000
(1510873683.202520) can0 43C#0060000020000000
(1510873683.202767) can0 44C#0060000020000000
(1510873683.238125) can0 207#0000C0FF68031400
(1510873683.238359) can0 227#D8017D003400ECD1
(1510873683.238605) can0 237#4441001700000000
(1510873683.238839) can0 247#667D890300002600
(1510873683.239114) can0 717#1001000011000000
(1510873683.239458) can0 209#0001400068031400
(1510873683.239683) can0 229#D701A700D200ECD1
(1510873683.239927) can0 239#4441001700000000
(1510873683.240222) can0 20B#0000C0FF68031400
(1510873683.240389) can0 22B#DE01A1006300ECD1
(1510873683.240632) can0 23B#4441001700000000
(1510873683.240864) can0 249#667D890300002600
(1510873683.241104) can0 24B#667D890300002600
(1510873683.241406) can0 719#0F00C601C80B0000
(1510873683.241580) can0 71B#0E000002A6040000
(1510873683.247966) can0 217#004000007E020004
(1510873683.249271) can0 219#00C07E007E020004
(1510873683.249923) can0 21B#0000000081020004
(1510873683.283885) can0 45C#0000093E00000000
(1510873683.283984) can0 10C#0900
(1510873683.284124) can0 549#09FF
(1510873683.284257) can0 547#09FF
(1510873683.284379) can0 54B#09FF
(1510873683.302292) can0 42C#0060000020000000
(1510873683.302520) can0 43C#0060000020000000
(1510873683.302767) can0 44C#0060000020000000
(1510873683.338095) can0 207#0000000068031400
(1510873683.338317) can0 227#F00187003300ECD1
(1510873683.338560) can0 237#4441001700000000
(1510873683.338795) can0 247#667D890300002600
(1510873683.339035) can0 717#11009AFF00000202
(1510873683.339461) can0 209#0001000068031400
(1510873683.339690) can0 229#F301AA009900ECD1
(1510873683.339930) can0 239#4441001700000000
(1510873683.340173) can0 20B#0000000068031400
(1510873683.340405) can0 22B#FA019A004900ECD1
(1510873683.340646) can0 23B#4441001700000000
(1510873683.340883) can0 249#667D890300002600
(1510873683.341126) can0 24B#667D890300002600
(1510873683.341353) can0 719#10F70F0011000000
(1510873683.341588) can0 71B#0F00C6019C0B0000
(1510873683.347898) can0 217#004000007F020004
(1510873683.349275) can0 219#00C07E007F020004
(1510873683.349881) can0 21B#0000000081020004
(1510873683.383851) can0 45C#0000093E00000000
(1510873683.402285) can0 42C#0060000020000000
(1510873683.402523) can0 43C#0060000020000000
(1510873683.402772) can0 44C#0060000020000000
(1510873683.438075) can0 207#0000C0FF68011400
(1510873683.438307) can0 227#F9018E003700ECD1
(1510873683.438548) can0 237#4441001700000000
(1510873683.438780) can0 247#667D890300002600
(1510873683.439018) can0 717#1240250027001500
(1510873683.439443) can0 209#0001000068011400
(1510873683.439653) can0 229#0502AB00A600ECD1
(1510873683.439891) can0 239#4441001700000000
(1510873683.440135) can0 20B#0000000068031400
(1510873683.440368) can0 22B#0F0296004900ECD1
(1510873683.440618) can0 23B#4441001700000000
(1510873683.440849) can0 249#667D890300002600
(1510873683.441082) can0 24B#667D890300002600
(1510873683.441326) can0 719#11007FFF00000202
(1510873683.441584) can0 71B#1000000012000000
(1510873683.447899) can0 217#004000007F020004
(1510873683.449236) can0 219#00C07E007F020004
(1510873683.449883) can0 21B#0000000081020004
(1510873683.483858) can0 45C#0000093E00000000
(1510873683.483990) can0 10C#0A00
(1510873683.484135) can0 549#0AFF
(1510873683.484264) can0 547#0AFF
(1510873683.484419) can0 54B#0AFF
(1510873683.502287) can0 42C#0060000020000000
(1510873683.502528) can0 43C#0060000020000000
(1510873683.502775) can0 44C#0060000020000000
(1510873683.538025) can0 207#0000000068011400
(1510873683.538256) can0 227#FF018D003200ECD1
(1510873683.538499) can0 237#4441001700000000
(1510873683.538733) can0 247#667D890300002600
(1510873683.538982) can0 717#1300000000000000
(1510873683.539413) can0 209#0001000068011400
(1510873683.539641) can0 229#0B02A7006100ECD1
(1510873683.539881) can0 239#4441001700000000
(1510873683.540123) can0 20B#0000C0FF68011400
(1510873683.540354) can0 22B#25029D005200ECD1
(1510873683.540593) can0 23B#4441001700000000
(1510873683.540829) can0 249#667D890300002600
(1510873683.541066) can0 24B#667D890300002600
(1510873683.541304) can0 719#1240250027001600
(1510873683.541546) can0 71B#110089FF00000202
(1510873683.547860) can0 217#004000007F020004
(1510873683.549227) can0 219#00C07E007F020004
(1510873683.549862) can0 21B#0000000081020004
(1510873683.583860) can0 45C#0000093E00000000
(1510873683.602287) can0 42C#0060000020000000
(1510873683.602530) can0 43C#0060000020000000
(1510873683.602778) can0 44C#0060000020000000
(1510873683.638020) can0 207#0000C0FF68011400
(1510873683.638248) can0 227#110288003200ECD1
(1510873683.638492) can0 237#4441001700000000
(1510873683.638725) can0 247#667D890300002600
(1510873683.638982) can0 717#14000000DFFF0000
(1510873683.639381) can0 209#0001000068011400
(1510873683.639617) can0 229#2402AD007400ECD1
(1510873683.639854) can0 239#4441001700000000
(1510873683.640091) can0 20B#0000C0FF68011400
(1510873683.640325) can0 22B#3702A0004900ECD1
(1510873683.640574) can0 23B#4441001700000000
(1510873683.640800) can0 249#667D890300002600
(1510873683.641038) can0 24B#667D890300002600
(1510873683.641285) can0 719#1300000000000000
(1510873683.641520) can0 71B#123D290027001500
(1510873683.647834) can0 217#004000007F020004
(1510873683.649205) can0 219#00C07E007F020004
(1510873683.649820) can0 21B#0000000082020004
(1510873683.683926) can0 45C#0000093E00000000
(1510873683.684047) can0 10C#0B00
(1510873683.684130) can0 547#0BFF
(1510873683.684358) can0 549#0BFF
(1510873683.684442) can0 54B#0BFF
(1510873683.702347) can0 42C#0060000020000000
(1510873683.702542) can0 43C#0060000020000000
(1510873683.702786) can0 44C#0060000020000000
(1510873683.738046) can0 207#0000C0FF68011400
(1510873683.738242) can0 227#1202C0072600ECD1
(1510873683.738484) can0 237#4441001700000000
(1510873683.738715) can0 247#667D890300002600
(1510873683.739366) can0 209#0000000068011400
(1510873683.739598) can0 229#2A0215085F00ECD1
(1510873683.739838) can0 239#4441001700000000
(1510873683.740077) can0 20B#0000C0FF68011400
(1510873683.740304) can0 22B#47021C092E00ECD1
(1510873683.740548) can0 23B#4441001700000000
(1510873683.740781) can0 249#667D890300002600
(1510873683.741017) can0 24B#667D890300002600
(1510873683.741260) can0 719#1400000021000000
(1510873683.741507) can0 71B#1300000000000000
(1510873683.747836) can0 217#004000007F020000
(1510873683.749175) can0 219#00C07E007F020000
(1510873683.749824) can0 21B#0000000082020000
(1510873683.783913) can0 45C#0000093E00000000
(1510873683.802346) can0 42C#0060000020000000
(1510873683.802541) can0 43C#0060000020000000
(1510873683.802805) can0 44C#0060000020000000
(1510873683.837936) can0 367#0000000000000000
(1510873683.838146) can0 207#0000C0FF68011400
(1510873683.838377) can0 227#180286102700ECD1
(1510873683.838618) can0 237#4441001700000000
(1510873683.838851) can0 247#667D890300002600
(1510873683.839087) can0 717#1600000000001D39
(1510873683.839373) can0 209#0000000068011400
(1510873683.839602) can0 229#2E0207105700ECD1
(1510873683.839851) can0 239#4441001700000000
(1510873683.840088) can0 20B#0000C0FF68011400
(1510873683.840321) can0 22B#52020C113400ECD1
(1510873683.840561) can0 23B#4441001700000000
(1510873683.840798) can0 249#667D890300002600
(1510873683.841046) can0 24B#667D890300002600
(1510873683.841274) can0 71B#1400000011000000
(1510873683.847796) can0 217#004000007F020000
(1510873683.848027) can0 377#0000000000000000
(1510873683.849174) can0 219#00C07E007F020000
(1510873683.849781) can0 21B#0000000082020000
(1510873683.857891) can0 347#0000000000000000
(1510873683.867886) can0 357#0000000000000000
(1510873683.877883) can0 327#0000000000000000
(1510873683.883856) can0 45C#0000093E00000000
(1510873683.883989) can0 10C#0C00
(1510873683.884147) can0 547#0CFF
(1510873683.884276) can0 549#0CFF
(1510873683.884406) can0 54B#0CFF
(1510873683.887883) can0 337#0000000000000000
(1510873683.902293) can0 42C#0060000020000000
(1510873683.902534) can0 43C#0060000020000000
(1510873683.902782) can0 44C#0060000020000000
(1510873683.937960) can0 207#0000C0FF68011400
(1510873683.938192) can0 227#270284102C00ECD1
(1510873683.938436) can0 237#4441001700000000
(1510873683.938669) can0 247#667D890300002600
(1510873683.938909) can0 717#170000100100F000
(1510873683.939244) can0 369#0000000000000000
(1510873683.939491) can0 209#0000000068011400
(1510873683.939724) can0 229#350209105700ECD1
(1510873683.939966) can0 20B#0000C0FF68011400
(1510873683.940197) can0 22B#59020B113700ECD1
(1510873683.940439) can0 239#4441001700000000
(1510873683.940676) can0 23B#4441001700000000
(1510873683.940912) can0 249#667D890300002600
(1510873683.941148) can0 24B#667D890300002600
(1510873683.941389) can0 719#1600000000002D39
(1510873683.947784) can0 217#004000007F020000
(1510873683.949131) can0 219#00807E007F020000
(1510873683.949381) can0 379#0000000000000000
(1510873683.949782) can0 21B#0000000082020000
(1510873683.959241) can0 349#0000000000000000
(1510873683.969244) can0 359#0000000000000000
(1510873683.979237) can0 329#0000000000000000
(1510873683.983862) can0 45C#0000093E00000000
(1510873683.989232) can0 339#0000000000000000
(1510873684.002297) can0 42C#0060000020000000
(1510873684.002541) can0 43C#0060000020000000
(1510873684.002789) can0 44C#0060000020000000
(1510873684.037918) can0 207#0000C0FF68011400
(1510873684.038148) can0 227#300284101D00ECD1
(1510873684.038405) can0 237#4441001700000000
(1510873684.038645) can0 247#667D890300002600
(1510873684.038871) can0 717#1800660600000000
(1510873684.039313) can0 209#0000000068011400
(1510873684.039541) can0 229#400205102D00ECD1
(1510873684.039785) can0 239#4441001700000000
(1510873684.040023) can0 249#667D890300002600
(1510873684.040262) can0 20B#0000C0FF68011400
(1510873684.040487) can0 22B#620203111B00ECD1
(1510873684.040727) can0 23B#4441001700000000
(1510873684.040963) can0 24B#667D890300002600
(1510873684.041211) can0 36B#0000000000000000
(1510873684.041449) can0 719#1700024001008001
(1510873684.041691) can0 71B#1600000000006139
(1510873684.047775) can0 217#004000007F020000
(1510873684.049119) can0 219#00807E007F020000
(1510873684.049766) can0 21B#0000000082020000
(1510873684.050014) can0 37B#0000000000000000
(1510873684.059849) can0 34B#0000000000000000
(1510873684.069851) can0 35B#0000000000000000
(1510873684.079845) can0 32B#0000000000000000
(1510873684.083866) can0 45C#0000093E00000000
(1510873684.084000) can0 10C#0D00
(1510873684.084148) can0 549#0DFF
(1510873684.084332) can0 547#0DFF
(1510873684.084399) can0 54B#0DFF
(1510873684.089842) can0 33B#0000000000000000
(1510873684.102300) can0 42C#0060000020000000
(1510873684.102543) can0 43C#0060000020000000
(1510873684.102789) can0 44C#0060000020000000
(1510873684.137905) can0 207#0000C0FF68011400
(1510873684.138131) can0 227#41027B102200ECD1
(1510873684.138375) can0 237#4441001700000000
(1510873684.138610) can0 247#667D890300002600
(1510873684.138856) can0 717#1900000000000000
(1510873684.139303) can0 209#0000000068011400
(1510873684.139534) can0 229#440205104800ECD1
(1510873684.139776) can0 239#4441001700000000
(1510873684.140016) can0 20B#0000C0FF68011400
(1510873684.140255) can0 22B#6E0209112000ECD1
(1510873684.140486) can0 23B#4441001700000000
(1510873684.140723) can0 249#667D890300002600
(1510873684.140959) can0 24B#667D890300002600
(1510873684.141205) can0 719#1800660600000000
(1510873684.141447) can0 71B#1700012001002001
(1510873684.147720) can0 217#004000007F020000
(1510873684.149113) can0 219#00807E007F020000
(1510873684.149717) can0 21B#0000000082020000
(1510873684.183877) can0 45C#0000093E00000000
(1510873684.202303) can0 42C#0060000020000000
(1510873684.202545) can0 43C#0060000020000000
(1510873684.202794) can0 44C#0060000020000000
(1510873684.237897) can0 207#0000C0FF68011400
(1510873684.238128) can0 227#41027D101500ECD1
(1510873684.238378) can0 237#4441001700000000
(1510873684.238618) can0 247#667D890300002600
(1510873684.238850) can0 717#01000000CC0C6000
(1510873684.239258) can0 209#0000000068011400
(1510873684.239488) can0 229#450201101100ECD1
(1510873684.239732) can0 239#4441001700000000
(1510873684.239987) can0 20B#0000000068011400
(1510873684.240208) can0 22B#7502FE102100ECD1
(1510873684.240444) can0 23B#4441001700000000
(1510873684.240680) can0 249#667D890300002600
(1510873684.240916) can0 24B#667D890300002600
(1510873684.241163) can0 719#1900000000000000
(1510873684.241406) can0 71B#1800660600000000
(1510873684.247733) can0 217#004000007F020000
(1510873684.249075) can0 219#00807E007F020000
(1510873684.249721) can0 21B#0000000082020000
(1510873684.283910) can0 45C#0000093E00000000
(1510873684.284003) can0 10C#0E00
(1510873684.284179) can0 547#0EFF
(1510873684.284272) can0 549#0EFF
(1510873684.284418) can0 54B#0EFF
(1510873684.302311) can0 42C#0060000020000000
(1510873684.302549) can0 43C#0060000020000000
(1510873684.302797) can0 44C#0060000020000000
(1510873684.337867) can0 207#0000C0FF68011400
(1510873684.338094) can0 227#4C0277101A00ECD1
(1510873684.338337) can0 237#4441001700000000
(1510873684.338571) can0 247#667D890300002600
(1510873684.338823) can0 717#0200000000000000
(1510873684.339266) can0 209#0000000068011400
(1510873684.339501) can0 229#5F0207100A00ECD1
(1510873684.339741) can0 239#4441001700000000
(1510873684.339983) can0 20B#0000C0FF68011400
(1510873684.340219) can0 22B#7B0208112000ECD1
(1510873684.340458) can0 23B#4441001700000000
(1510873684.340695) can0 249#667D890300002600
(1510873684.340930) can0 24B#667D890300002600
(1510873684.341173) can0 719#01000000CC0C6000
(1510873684.341419) can0 71B#1900000000000000
(1510873684.347669) can0 217#004000007F020000
(1510873684.349076) can0 219#00807E007F020000
(1510873684.349685) can0 21B#0000000082020000
(1510873684.383877) can0 45C#0000093E00000000
(1510873684.402309) can0 42C#0060000020000000
(1510873684.402552) can0 43C#0060000020000000
(1510873684.402799) can0 44C#0060000020000000
(1510873684.437847) can0 207#0000C0FF68011400
(1510873684.438074) can0 227#560281101300ECD1
(1510873684.438327) can0 237#4441001700000000
(1510873684.438552) can0 247#667D890300002600
(1510873684.439222) can0 209#0000000068011400
(1510873684.439444) can0 229#600209101500ECD1
(1510873684.439684) can0 239#4441001700000000
(1510873684.439931) can0 20B#0000C0FF68011400
(1510873684.440163) can0 22B#8102FB101700ECD1
(1510873684.440398) can0 23B#4441001700000000
(1510873684.440633) can0 249#667D890300002600
(1510873684.440868) can0 24B#667D890300002600
(1510873684.441116) can0 719#0200000000000000
(1510873684.441357) can0 71B#01000000CC0C6000
(1510873684.447689) can0 217#004000007F020000
(1510873684.449059) can0 219#00807E007F020000
(1510873684.449687) can0 21B#0000000082020000
(1510873684.483881) can0 45C#0000093E00000000
(1510873684.484015) can0 10C#0F00
(1510873684.484167) can0 547#0FFF
(1510873684.484342) can0 549#0FFF
(1510873684.484412) can0 54B#0FFF
(1510873684.502316) can0 42C#0060000020000000
(1510873684.502555) can0 43C#0060000020000000
(1510873684.502802) can0 44C#0060000020000000
(1510873684.537849) can0 207#0000C0FF68011400
(1510873684.538078) can0 227#610280101700ECD1
(1510873684.538322) can0 237#4441001700000000
(1510873684.538556) can0 247#667D890300002600
(1510873684.538800) can0 717#040000000D090000
(1510873684.539189) can0 209#0000000068011400
(1510873684.539420) can0 229#690204102B00ECD1
(1510873684.539661) can0 239#4441001700000000
(1510873684.539903) can0 20B#0000C0FF68011400
(1510873684.540134) can0 22B#8C02FE102100ECD1
(1510873684.540374) can0 23B#4441001700000000
(1510873684.540610) can0 249#667D890300002600
(1510873684.540846) can0 24B#667D890300002600
(1510873684.541093) can0 71B#0200000000000000
(1510873684.547659) can0 217#004000007F020000
(1510873684.549014) can0 219#00807E007F020000
(1510873684.549661) can0 21B#0000000082020000
(1510873684.583888) can0 45C#0000093E00000000
(1510873684.602314) can0 42C#0060000020000000
(1510873684.602557) can0 43C#0060000020000000
(1510873684.602805) can0 44C#0060000020000000
(1510873684.637791) can0 207#0000C0FF68011400
(1510873684.638016) can0 227#6F028B101900ECD1
(1510873684.638265) can0 237#4441001700000000
(1510873684.638523) can0 247#667D890300002600
(1510873684.638751) can0 717#0500000000000000
(1510873684.639201) can0 209#0000000068011400
(1510873684.639427) can0 229#6F020F103400ECD1
(1510873684.639667) can0 239#4441001700000000
(1510873684.639913) can0 20B#0000000068011400
(1510873684.640145) can0 22B#9B0201111D00ECD1
(1510873684.640386) can0 23B#4441001700000000
(1510873684.640621) can0 249#667D890300002600
(1510873684.640854) can0 24B#667D890300002600
(1510873684.641093) can0 719#040000000D090700
(1510873684.647616) can0 217#004000007F020000
(1510873684.649022) can0 219#00807E007F020000
(1510873684.649623) can0 21B#0000000082020000
(1510873684.683891) can0 45C#0000093E00000000
(1510873684.684021) can0 10C#1000
(1510873684.684166) can0 54B#10FF
(1510873684.684322) can0 547#10FF
(1510873684.684422) can0 549#10FF
(1510873684.702319) can0 42C#0060000020000000
(1510873684.702561) can0 43C#0060000020000000
(1510873684.702807) can0 44C#0060000020000000
(1510873684.737801) can0 207#0000C0FF68011400
(1510873684.738027) can0 227#76028C101600ECD1
(1510873684.738271) can0 237#4441001700000000
(1510873684.738504) can0 247#667D890300002600
(1510873684.738737) can0 717#0600853999010040
(1510873684.739154) can0 209#0000000068011400
(1510873684.739387) can0 229#8D020F101600ECD1
(1510873684.739628) can0 239#4441001700000000
(1510873684.739869) can0 20B#0000C0FF68011400
(1510873684.740096) can0 22B#AB0206110E00ECD1
(1510873684.740337) can0 23B#4441001700000000
(1510873684.740572) can0 249#667D890300002600
(1510873684.740808) can0 24B#667D890300002600
(1510873684.741056) can0 719#0500000000000000
(1510873684.741297) can0 71B#040000000D090200
(1510873684.747609) can0 217#004000007F020000
(1510873684.748970) can0 219#00807E007F020000
(1510873684.749631) can0 21B#0000000082020000
(1510873684.783926) can0 45C#0000093E00000000
(1510873684.802336) can0 42C#0060000020000000
(1510873684.802564) can0 43C#0060000020000000
(1510873684.802820) can0 44C#0060000020000000
(1510873684.837689) can0 367#0000000000000000
(1510873684.837927) can0 207#0000C0FF68011400
(1510873684.838155) can0 227#87028E101000ECD1
(1510873684.838408) can0 237#4441001700000000
(1510873684.838669) can0 247#667D890300002600
(1510873684.838899) can0 717#0700000002260000
(1510873684.839152) can0 209#0000000068011400
(1510873684.839375) can0 229#8E0213104A00ECD1
(1510873684.839616) can0 239#4441001700000000
(1510873684.839866) can0 20B#0000000068011400
(1510873684.840091) can0 22B#B2020B111200ECD1
(1510873684.840328) can0 23B#4441001700000000
(1510873684.840565) can0 249#667D890300002600
(1510873684.840803) can0 24B#667D890300002600
(1510873684.841062) can0 719#06008D3999010040
(1510873684.841279) can0 71B#0500000000000000
(1510873684.847606) can0 217#004000007F020000
(1510873684.847836) can0 377#0000000000000000
(1510873684.848971) can0 219#00807E007F020000
(1510873684.849598) can0 21B#0000000082020000
(1510873684.857688) can0 347#0000000000000000
(1510873684.867677) can0 357#0000000000000000
(1510873684.877676) can0 327#0000000000000000
(1510873684.883891) can0 45C#0000093E00000000
(1510873684.884023) can0 10C#1100
(1510873684.884164) can0 549#11FF
(1510873684.884336) can0 547#11FF
(1510873684.884403) can0 54B#11FF
(1510873684.887672) can0 337#0000000000000000
(1510873684.902322) can0 42C#0060000020000000
(1510873684.902566) can0 43C#0060000020000000
(1510873684.902813) can0 44C#0060000020000000
(1510873684.937740) can0 207#0000000068011400
(1510873684.937964) can0 227#8E0287101800ECD1
(1510873684.938209) can0 237#4441001700000000
(1510873684.938442) can0 247#667D890300002600
(1510873684.938683) can0 717#0800000049390000
(1510873684.939044) can0 369#0000000000000000
(1510873684.939292) can0 209#0000000068011400
(1510873684.939521) can0 229#990210100900ECD1
(1510873684.939766) can0 20B#0000000068011400
(1510873684.939997) can0 22B#BB0206111C00ECD1
(1510873684.940237) can0 239#4441001700000000
(1510873684.940476) can0 23B#4441001700000000
(1510873684.940713) can0 249#667D890300002600
(1510873684.940948) can0 24B#667D890300002600
(1510873684.941190) can0 719#0700000002260000
(1510873684.941425) can0 71B#06008D3999010040
(1510873684.947546) can0 217#004000007F020000
(1510873684.948952) can0 219#00807E007F020000
(1510873684.949206) can0 379#0000000000000000
(1510873684.949556) can0 21B#0000000082020000
(1510873684.959043) can0 349#0000000000000000
(1510873684.969043) can0 359#0000000000000000
(1510873684.979039) can0 329#0000000000000000
(1510873684.983892) can0 45C#0000093E00000000
(1510873684.989034) can0 339#0000000000000000
(1510873685.002325) can0 42C#0060000020000000
(1510873685.002570) can0 43C#0060000020000000
(1510873685.002816) can0 44C#0060000020000000
(1510873685.037757) can0 207#0000C0FF68011400
(1510873685.037960) can0 227#92028C100C00ECD1
(1510873685.038220) can0 237#4441001700000000
(1510873685.038429) can0 247#667D890300002600
(1510873685.038666) can0 717#09004D3900000000
(1510873685.039104) can0 209#0000000068011400
(1510873685.039334) can0 229#A0020F100400ECD1
(1510873685.039583) can0 239#4441001700000000
(1510873685.039813) can0 249#667D890300002600
(1510873685.040052) can0 20B#0000C0FF68011400
(1510873685.040282) can0 22B#CD020E111200ECD1
(1510873685.040531) can0 23B#4441001700000000
(1510873685.040768) can0 24B#667D890300002600
(1510873685.041011) can0 36B#0000000000000000
(1510873685.041251) can0 719#080000002D390000
(1510873685.041499) can0 71B#0700000002260000
(1510873685.047570) can0 217#004000007F020000
(1510873685.048915) can0 219#00807E007F020000
(1510873685.049562) can0 21B#0000000082020000
(1510873685.049809) can0 37B#0000000000000000
(1510873685.059653) can0 34B#0000000000000000
(1510873685.069656) can0 35B#0000000000000000
(1510873685.079649) can0 32B#0000000000000000
(1510873685.083896) can0 45C#0000093E00000000
(1510873685.084029) can0 10C#1200
(1510873685.084174) can0 54B#12FF
(1510873685.084334) can0 547#12FF
(1510873685.084442) can0 549#12FF
(1510873685.089646) can0 33B#0000000000000000
(1510873685.102331) can0 42C#0060000020000000
(1510873685.102573) can0 43C#0060000020000000
(1510873685.102820) can0 44C#0060000020000000
(1510873685.137685) can0 207#0000C0FF68011400
(1510873685.137911) can0 227#A30280101300ECD1
(1510873685.138156) can0 237#4441001700000000
(1510873685.138388) can0 247#667D890300002600
(1510873685.138634) can0 717#0A00000000000000
(1510873685.139104) can0 209#0000000068011400
(1510873685.139334) can0 229#AB0207102800ECD1
(1510873685.139577) can0 239#4441001700000000
(1510873685.139816) can0 20B#0000C0FF68011400
(1510873685.140045) can0 22B#D3020A111300ECD1
(1510873685.140287) can0 23B#4441001700000000
(1510873685.140522) can0 249#667D890300002600
(1510873685.140759) can0 24B#667D890300002600
(1510873685.140998) can0 719#0900853900000000
(1510873685.141242) can0 71B#0800000069390000
(1510873685.147505) can0 217#004000007F020000
(1510873685.148915) can0 219#00807E007F020000
(1510873685.149524) can0 21B#0000000082020000
(1510873685.183900) can0 45C#0000093E00000000
(1510873685.202331) can0 42C#0060000020000000
(1510873685.202577) can0 43C#0060000020000000
(1510873685.202826) can0 44C#0060000020000000
(1510873685.237684) can0 207#0000C0FF68011400
(1510873685.237913) can0 227#AA0282100A00ECD1
(1510873685.238167) can0 237#4441001700000000
(1510873685.238391) can0 247#667D890300002600
(1510873685.238638) can0 717#0B00000000000000
(1510873685.239050) can0 209#0000000068011400
(1510873685.239295) can0 229#AD0209101000ECD1
(1510873685.239522) can0 239#4441001700000000
(1510873685.239762) can0 20B#0000C0FF68011400
(1510873685.239989) can0 22B#D90206111600ECD1
(1510873685.240235) can0 23B#4441001700000000
(1510873685.240485) can0 249#667D890300002600
(1510873685.240707) can0 24B#667D890300002600
(1510873685.240952) can0 719#0A00000000000000
(1510873685.241196) can0 71B#0900693900000000
(1510873685.247518) can0 217#004000007F020000
(1510873685.248875) can0 219#00807E007F020000
(1510873685.249518) can0 21B#0000000082020000
(1510873685.283937) can0 45C#0000093E00000000
(1510873685.284026) can0 10C#1300
(1510873685.284197) can0 547#13FF
(1510873685.284366) can0 549#13FF
(1510873685.284436) can0 54B#13FF
(1510873685.302338) can0 42C#0060000020000000
(1510873685.302579) can0 43C#0060000020000000
(1510873685.302826) can0 44C#0060000020000000
(1510873685.337645) can0 207#0000C0FF68011400
(1510873685.337869) can0 227#AD0289100B00ECD1
(1510873685.338114) can0 237#4441001700000000
(1510873685.338346) can0 247#667D890300002600
(1510873685.338587) can0 717#0C01000000060100
(1510873685.339034) can0 209#0000C0FF68011400
(1510873685.339271) can0 229#B20205100000ECD1
(1510873685.339511) can0 239#4441001700000000
(1510873685.339752) can0 20B#0000C0FF68011400
(1510873685.339982) can0 22B#E7020E111300ECD1
(1510873685.340223) can0 23B#4441001700000000
(1510873685.340457) can0 249#667D890300002600
(1510873685.340701) can0 24B#667D890300002600
(1510873685.340939) can0 719#0B00000000000000
(1510873685.341187) can0 71B#0A00000000000000
(1510873685.347486) can0 217#004000007F020000
(1510873685.348866) can0 219#00807E007F020000
(1510873685.349499) can0 21B#0000000082020000
(1510873685.383905) can0 45C#0000093E00000000
(1510873685.402339) can0 42C#0060000020000000
(1510873685.402580) can0 43C#0060000020000000
(1510873685.402836) can0 44C#0060000020000000
(1510873685.437626) can0 207#0000C0FF68011400
(1510873685.437844) can0 227#BA027D100D00ECD1
(1510873685.438094) can0 237#4441001700000000
(1510873685.438324) can0 247#667D890300002600
(1510873685.438575) can0 717#0E000002060E0000
(1510873685.439037) can0 209#0000000068011400
(1510873685.439250) can0 229#B6020C100900ECD1
(1510873685.439487) can0 239#4441001700000000
(1510873685.439734) can0 20B#0000C0FF68011400
(1510873685.439975) can0 22B#EC0209110B00ECD1
(1510873685.440202) can0 23B#4441001700000000
(1510873685.440438) can0 249#667D890300002600
(1510873685.440698) can0 24B#667D890300002600
(1510873685.440916) can0 719#0C01000000060100
(1510873685.441161) can0 71B#0B00000000000000
(1510873685.447441) can0 217#004000007F020000
(1510873685.448852) can0 219#00807E007F020000
(1510873685.449459) can0 21B#0000000082020000
(1510873685.483922) can0 45C#0000093E00000000
(1510873685.484064) can0 10C#1400
(1510873685.484189) can0 54B#14FF
(1510873685.484346) can0 547#14FF
(1510873685.484443) can0 549#14FF
(1510873685.502344) can0 42C#0060000020000000
(1510873685.502584) can0 43C#0060000020000000
(1510873685.502832) can0 44C#0060000020000000
(1510873685.537619) can0 207#0000000068011400
(1510873685.537850) can0 227#BF0283100C00ECD1
(1510873685.538093) can0 237#4441001700000000
(1510873685.538327) can0 247#667D890300002600
(1510873685.538562) can0 717#0F00C701AB0E0000
(1510873685.538992) can0 209#0000000068011400
(1510873685.539222) can0 229#C70206100100ECD1
(1510873685.539463) can0 239#4441001700000000
(1510873685.539708) can0 20B#0000000068011400
(1510873685.539939) can0 22B#F40205111600ECD1
(1510873685.540179) can0 23B#4441001700000000
(1510873685.540414) can0 249#667D890300002600
(1510873685.540650) can0 24B#667D890300002600
(1510873685.540892) can0 719#0E000002060E0000
(1510873685.541136) can0 71B#0C01000000060100
(1510873685.547438) can0 217#004000007F020000
(1510873685.548804) can0 219#00807E007F020000
(1510873685.549460) can0 21B#0000000082020000
(1510873685.583919) can0 45C#0000093E00000000
(1510873685.602343) can0 42C#0060000020000000
(1510873685.602588) can0 43C#0060000020000000
(1510873685.602835) can0 44C#0060000020000000
(1510873685.637572) can0 207#0000C0FF68011400
(1510873685.637811) can0 227#C8027A100C00ECD1
(1510873685.638049) can0 237#4441001700000000
(1510873685.638285) can0 247#667D890300002600
(1510873685.638530) can0 717#1003000015000000
(1510873685.639002) can0 209#0000000068011400
(1510873685.639222) can0 229#CC0207100600ECD1
(1510873685.639459) can0 239#4441001700000000
(1510873685.639699) can0 20B#0000C0FF68011400
(1510873685.639932) can0 22B#FA0205110600ECD1
(1510873685.640173) can0 23B#4441001700000000
(1510873685.640411) can0 249#667D890300002600
(1510873685.640645) can0 24B#667D890300002600
(1510873685.640881) can0 719#0F00C701200C0000
(1510873685.641123) can0 71B#0E000002060E0000
(1510873685.647402) can0 217#004000007F020000
(1510873685.648810) can0 219#00807E007F020000
(1510873685.649417) can0 21B#0000000082020000
(1510873685.683917) can0 45C#0000093E00000000
(1510873685.684054) can0 10C#1500
(1510873685.684198) can0 549#15FF
(1510873685.684357) can0 547#15FF
(1510873685.684428) can0 54B#15FF
(1510873685.702348) can0 42C#0060000020000000
(1510873685.702590) can0 43C#0060000020000000
(1510873685.702837) can0 44C#0060000020000000
(1510873685.737573) can0 207#0000C0FF68011400
(1510873685.737801) can0 227#CE0276100300ECD1
(1510873685.738045) can0 237#4441001700000000
(1510873685.738278) can0 247#667D890300002600
(1510873685.738521) can0 717#11009BF300000000
(1510873685.738949) can0 209#0000000068011400
(1510873685.739181) can0 229#D60203100000ECD1
(1510873685.739421) can0 239#4441001700000000
(1510873685.739662) can0 20B#0000C0FF68011400
(1510873685.739898) can0 22B#0203FF101000ECD1
(1510873685.740140) can0 23B#4441001700000000
(1510873685.740375) can0 249#667D890300002600
(1510873685.740611) can0 24B#667D890300002600
(1510873685.740849) can0 719#10F50F0016000000
(1510873685.741086) can0 71B#0F00C701EA0B0000
(1510873685.747399) can0 217#004000007F020000
(1510873685.748791) can0 219#00807E007F020000
(1510873685.749421) can0 21B#0000000082020000
(1510873685.783961) can0 45C#0000093E00000000
(1510873685.802360) can0 42C#0060000020000000
(1510873685.802596) can0 43C#0060000020000000
(1510873685.802843) can0 44C#0060000020000000
(1510873685.837477) can0 367#0000000000000000
(1510873685.837707) can0 207#0000C0FF68011400
(1510873685.837933) can0 227#DC0276100B00ECD1
(1510873685.838189) can0 237#4441001700000000
(1510873685.838415) can0 247#667D890300002600
(1510873685.838654) can0 717#1240260027001700
(1510873685.838980) can0 209#0000000068011400
(1510873685.839174) can0 229#DC0203100000ECD1
(1510873685.839409) can0 239#4441001700000000
(1510873685.839657) can0 20B#0000000068011400
(1510873685.839891) can0 22B#0B0302110800ECD1
(1510873685.840137) can0 23B#4441001700000000
(1510873685.840369) can0 249#667D890300002600
(1510873685.840604) can0 24B#667D890300002600
(1510873685.840844) can0 719#1100F2F300000000
(1510873685.841087) can0 71B#1000000017000000
(1510873685.847386) can0 217#004000007F020000
(1510873685.847627) can0 377#0000000000000000
(1510873685.848762) can0 219#00807E007F020000
(1510873685.849406) can0 21B#0000000082020000
(1510873685.857461) can0 347#0000000000000000
(1510873685.867457) can0 357#0000000000000000
(1510873685.877454) can0 327#0000000000000000
(1510873685.883924) can0 45C#0000093E00000000
(1510873685.884047) can0 10C#1600
(1510873685.884190) can0 547#16FF
(1510873685.884370) can0 549#16FF
(1510873685.884440) can0 54B#16FF
(1510873685.887461) can0 337#0000000000000000
(1510873685.902355) can0 42C#0060000020000000
(1510873685.902599) can0 43C#0060000020000000
(1510873685.902845) can0 44C#0060000020000000
(1510873685.937515) can0 207#0000000068011400
(1510873685.937745) can0 227#E10280100E00ECD1
(1510873685.937987) can0 237#4441001700000000
(1510873685.938222) can0 247#667D890300002600
(1510873685.938470) can0 717#1300000000000000
(1510873685.938838) can0 369#0000000000000000
(1510873685.939078) can0 209#0000C0FF68011400
(1510873685.939312) can0 229#E102FE0F0700ECD1
(1510873685.939554) can0 20B#0000C0FF68011400
(1510873685.939782) can0 22B#18030B111200ECD1
(1510873685.940022) can0 239#4441001700000000
(1510873685.940263) can0 23B#4441001700000000
(1510873685.940498) can0 249#667D890300002600
(1510873685.940735) can0 24B#667D890300002600
(1510873685.940971) can0 719#1240290027001600
(1510873685.941213) can0 71B#11002BF300000000
(1510873685.947339) can0 217#004000007F020000
(1510873685.948756) can0 219#00807E007F020000
(1510873685.949003) can0 379#0000000000000000
(1510873685.949366) can0 21B#0000000082020000
(1510873685.958837) can0 349#0000000000000000
(1510873685.968835) can0 359#0000000000000000
(1510873685.978831) can0 329#0000000000000000
(1510873685.983926) can0 45C#0000093E00000000
(1510873685.988829) can0 339#0000000000000000
(1510873686.002356) can0 42C#0060000020000000
(1510873686.002602) can0 43C#0060000020000000
(1510873686.002852) can0 44C#0060000020000000
(1510873686.037534) can0 207#0000C0FF68011400
(1510873686.037761) can0 227#EE0280101200ECD1
(1510873686.038007) can0 237#4441001700000000
(1510873686.038261) can0 247#667D890300002600
(1510873686.038486) can0 717#1400000001000000
(1510873686.038885) can0 209#0000C0FF68011400
(1510873686.039112) can0 229#F70217100600ECD1
(1510873686.039351) can0 239#4441001700000000
(1510873686.039589) can0 249#667D890300002600
(1510873686.039832) can0 20B#0000C0FF68011400
(1510873686.040073) can0 22B#1F0302110500ECD1
(1510873686.040307) can0 23B#4441001700000000
(1510873686.040543) can0 24B#667D890300002600
(1510873686.040789) can0 36B#0000000000000000
(1510873686.041038) can0 719#1300000000000000
(1510873686.041275) can0 71B#123F290027001600
(1510873686.047343) can0 217#004000007F020000
(1510873686.048717) can0 219#00807E007F020000
(1510873686.049371) can0 21B#0000000082020000
(1510873686.049616) can0 37B#0000000000000000
(1510873686.059450) can0 34B#0000000000000000
(1510873686.069450) can0 35B#0000000000000000
(1510873686.079445) can0 32B#0000000000000000
(1510873686.083929) can0 45C#0000093E00000000
(1510873686.084055) can0 10C#1700
(1510873686.084204) can0 549#17FF
(1510873686.084394) can0 547#17FF
(1510873686.084461) can0 54B#17FF
(1510873686.089442) can0 33B#0000000000000000
(1510873686.102361) can0 42C#0060000020000000
(1510873686.102603) can0 43C#0060000020000000
(1510873686.102853) can0 44C#0060000020000000
(1510873686.137484) can0 207#0000000068011400
(1510873686.137709) can0 227#F5027B100900ECD1
(1510873686.137954) can0 237#4441001700000000
(1510873686.138189) can0 247#667D890300002600
(1510873686.138891) can0 209#0000C0FF68011400
(1510873686.139121) can0 229#020316100200ECD1
(1510873686.139365) can0 239#4441001700000000
(1510873686.139603) can0 20B#0000C0FF68011400
(1510873686.139837) can0 22B#2B030D110800ECD1
(1510873686.140071) can0 23B#4441001700000000
(1510873686.140309) can0 249#667D890300002600
(1510873686.140545) can0 24B#667D890300002600
(1510873686.140788) can0 719#1400000017000000
(1510873686.141032) can0 71B#1300000000000000
(1510873686.147319) can0 217#004000007F020000
(1510873686.148713) can0 219#00807E007F020000
(1510873686.149320) can0 21B#0000000082020000
(1510873686.183932) can0 45C#0000093E00000000
(1510873686.202369) can0 42C#0060000020000000
(1510873686.202608) can0 43C#0060000020000000
(1510873686.202853) can0 44C#0060000020000000
(1510873686.237449) can0 207#0000C0FF68011400
(1510873686.237680) can0 227#020383100100ECD1
(1510873686.237922) can0 237#4441001700000000
(1510873686.238157) can0 247#667D890300002600
(1510873686.238393) can0 717#1600000000006139
(1510873686.238857) can0 209#0000000068011400
(1510873686.239085) can0 229#0C0310100300ECD1
(1510873686.239327) can0 239#4441001700000000
(1510873686.239571) can0 20B#0000C0FF68011400
(1510873686.239804) can0 22B#3D0318110F00ECD1
(1510873686.240044) can0 23B#4441001700000000
(1510873686.240279) can0 249#667D890300002600
(1510873686.240514) can0 24B#667D890300002600
(1510873686.240781) can0 71B#14000000E6FF0000
(1510873686.247281) can0 217#004000007F020000
(1510873686.248698) can0 219#00807E007F020000
(1510873686.249321) can0 21B#0000000082020000
(1510873686.283971) can0 45C#0000093E00000000
(1510873686.284068) can0 10C#1800
(1510873686.284226) can0 547#18FF
(1510873686.284353) can0 549#18FF
(1510873686.284473) can0 54B#18FF
(1510873686.302371) can0 42C#0060000020000000
(1510873686.302612) can0 43C#0060000020000000
(1510873686.302859) can0 44C#0060000020000000
(1510873686.337442) can0 207#0000C0FF68011400
(1510873686.337669) can0 227#0A0389100A00ECD1
(1510873686.337914) can0 237#4441001700000000
(1510873686.338146) can0 247#667D890300002600
(1510873686.338387) can0 717#1700003001001001
(1510873686.338831) can0 209#0000000068011400
(1510873686.339064) can0 229#110316100200ECD1
(1510873686.339304) can0 239#4441001700000000
(1510873686.339552) can0 20B#0000000068011400
(1510873686.339779) can0 22B#450314111300ECD1
(1510873686.340019) can0 23B#4441001700000000
(1510873686.340256) can0 249#667D890300002600
(1510873686.340492) can0 24B#667D890300002600
(1510873686.340733) can0 719#1600000000007D39
(1510873686.347273) can0 217#004000007F020000
(1510873686.348649) can0 219#00807E007F020000
(1510873686.349312) can0 21B#0000000082020000
(1510873686.383938) can0 45C#0000093E00000000
(1510873686.402374) can0 42C#0060000020000000
(1510873686.402613) can0 43C#0060000020000000
(1510873686.402862) can0 44C#0060000020000000
(1510873686.437423) can0 207#0000000068011400
(1510873686.437665) can0 227#110388100800ECD1
(1510873686.437906) can0 237#4441001700000000
(1510873686.438145) can0 247#667D890300002600
(1510873686.438403) can0 717#1800660600000000
(1510873686.438829) can0 209#0000000068011400
(1510873686.439053) can0 229#170312100500ECD1
(1510873686.439293) can0 239#4441001700000000
(1510873686.439540) can0 20B#0000000068011400
(1510873686.439775) can0 22B#45030E110500ECD1
(1510873686.440011) can0 23B#4441001700000000
(1510873686.440249) can0 249#667D890300002600
(1510873686.440482) can0 24B#667D890300002600
(1510873686.440728) can0 719#1700036001008001
(1510873686.440964) can0 71B#1600000000008139
(1510873686.447238) can0 217#004000007F020000
(1510873686.448655) can0 219#00807E007F020000
(1510873686.449261) can0 21B#0000000082020000
(1510873686.483944) can0 45C#0000093E00000000
(1510873686.484069) can0 10C#1900
(1510873686.484218) can0 549#19FF
(1510873686.484379) can0 547#19FF
(1510873686.484466) can0 54B#19FF
(1510873686.502379) can0 42C#0060000020000000
(1510873686.502616) can0 43C#0060000020000000
(1510873686.502863) can0 44C#0060000020000000
(1510873686.537409) can0 207#0000000068011400
(1510873686.537636) can0 227#1E0389100600ECD1
(1510873686.537880) can0 237#4441001700000000
(1510873686.538115) can0 247#667D890300002600
(1510873686.538360) can0 717#1900000000000000
(1510873686.538783) can0 209#0000C0FF68011400
(1510873686.539017) can0 229#200310100500ECD1
(1510873686.539256) can0 239#4441001700000000
(1510873686.539500) can0 20B#0000C0FF68011400
(1510873686.539726) can0 22B#560317111000ECD1
(1510873686.539966) can0 23B#4441001700000000
(1510873686.540203) can0 249#667D890300002600
(1510873686.540438) can0 24B#667D890300002600
(1510873686.540685) can0 719#1800660600000000
(1510873686.540923) can0 71B#1700024001005001
(1510873686.547236) can0 217#004000007F020000
(1510873686.548616) can0 219#00807E007F020000
(1510873686.549266) can0 21B#0000000082020000
(1510873686.583959) can0 45C#0000093E00000000
(1510873686.602379) can0 42C#0060000020000000
(1510873686.602619) can0 43C#0060000020000000
(1510873686.602867) can0 44C#0060000020000000
(1510873686.637360) can0 207#0000C0FF68011400
(1510873686.637595) can0 227#27037D100300ECD1
(1510873686.637840) can0 237#4441001700000000
(1510873686.638070) can0 247#667D890300002600
(1510873686.638318) can0 717#01000000CC0C6000
(1510873686.638796) can0 209#0000C0FF68011400
(1510873686.639022) can0 229#2A0314100300ECD1
(1510873686.639260) can0 239#4441001700000000
(1510873686.639506) can0 20B#0000000068011400
(1510873686.639731) can0 22B#5C030B110200ECD1
(1510873686.639972) can0 23B#4441001700000000
(1510873686.640214) can0 249#667D890300002600
(1510873686.640446) can0 24B#667D890300002600
(1510873686.640695) can0 719#1900000000000000
(1510873686.640938) can0 71B#1800660600000000
(1510873686.647230) can0 217#004000007F020000
(1510873686.648627) can0 219#00807E007F020000
(1510873686.649247) can0 21B#0000000082020000
(1510873686.683944) can0 45C#0000093E00000000
(1510873686.684065) can0 10C#1A00
(1510873686.684213) can0 547#1AFF
(1510873686.684377) can0 549#1AFF
(1510873686.684456) can0 54B#1AFF
(1510873686.702385) can0 42C#0060000020000000
(1510873686.702623) can0 43C#0060000020000000
(1510873686.702871) can0 44C#0060000020000000
(1510873686.737337) can0 207#0000C0FF68011400
(1510873686.737567) can0 227#2E037F100C00ECD1
(1510873686.737812) can0 237#4441001700000000
(1510873686.738045) can0 247#667D890300002600
(1510873686.738291) can0 717#0200000000000000
(1510873686.738748) can0 209#0000000068011400
(1510873686.738982) can0 229#30030C100F00ECD1
(1510873686.739221) can0 239#4441001700000000
(1510873686.739464) can0 20B#0000C0FF68011400
(1510873686.739692) can0 22B#610309110E00ECD1
(1510873686.739931) can0 23B#4441001700000000
(1510873686.740167) can0 249#667D890300002600
(1510873686.740402) can0 24B#667D890300002600
(1510873686.740644) can0 719#01000000CC0C6000
(1510873686.740890) can0 71B#1900000000000000
(1510873686.747166) can0 217#004000007F020000
(1510873686.748594) can0 219#00807E007F020000
(1510873686.749207) can0 21B#0000000082020000
(1510873686.783977) can0 45C#0000093E00000000
(1510873686.802399) can0 42C#0060000020000000
(1510873686.802625) can0 43C#0060000020000000
(1510873686.802874) can0 44C#0060000020000000
(1510873686.837259) can0 367#0000000000000000
(1510873686.837496) can0 207#0000C0FF68011400
(1510873686.837728) can0 227#340378100F00ECD1
(1510873686.837985) can0 237#4441001700000000
(1510873686.838209) can0 247#667D890300002600
(1510873686.838732) can0 209#0000000068011400
(1510873686.838960) can0 229#36030F100500ECD1
(1510873686.839209) can0 239#4441001700000000
(1510873686.839444) can0 20B#0000C0FF68011400
(1510873686.839672) can0 22B#6E0308110C00ECD1
(1510873686.839911) can0 23B#4441001700000000
(1510873686.840147) can0 249#667D890300002600
(1510873686.840383) can0 24B#667D890300002600
(1510873686.840632) can0 719#0200000000000000
(1510873686.840872) can0 71B#01000000CC0C6000
(1510873686.847199) can0 217#004000007F020000
(1510873686.847413) can0 377#0000000000000000
(1510873686.848557) can0 219#00807E007F020000
(1510873686.849200) can0 21B#0000000082020000
(1510873686.857267) can0 347#0000000000000000
(1510873686.867252) can0 357#0000000000000000
(1510873686.877246) can0 327#0000000000000000
(1510873686.883945) can0 45C#0000093E00000000
(1510873686.884077) can0 10C#1B00
(1510873686.884223) can0 547#1BFF
(1510873686.884381) can0 549#1BFF
(1510873686.884482) can0 54B#1BFF
(1510873686.887244) can0 337#0000000000000000
(1510873686.902386) can0 42C#0060000020000000
(1510873686.902628) can0 43C#0060000020000000
(1510873686.902875) can0 44C#0060000020000000
(1510873686.937302) can0 207#0000C0FF68011400
(1510873686.937531) can0 227#3F0379100600ECD1
(1510873686.937775) can0 237#4441001700000000
(1510873686.938007) can0 247#667D890300002600
(1510873686.938248) can0 717#040000000D090100
(1510873686.938641) can0 369#0000000000000000
(1510873686.938889) can0 209#0000000068011400
(1510873686.939120) can0 229#3F030B100600ECD1
(1510873686.939362) can0 20B#0000C0FF68011400
(1510873686.939589) can0 22B#72030D111200ECD1
(1510873686.939829) can0 239#4441001700000000
(1510873686.940069) can0 23B#4441001700000000
(1510873686.940305) can0 249#667D890300002600
(1510873686.940541) can0 24B#667D890300002600
(1510873686.940789) can0 71B#0200000000000000
(1510873686.947118) can0 217#004000007F020000
(1510873686.948567) can0 219#00807E007F020000
(1510873686.948807) can0 379#0000000000000000
(1510873686.949157) can0 21B#0000000082020000
(1510873686.958643) can0 349#0000000000000000
(1510873686.968642) can0 359#0000000000000000
(1510873686.978639) can0 329#0000000000000000
(1510873686.983948) can0 45C#0000093E00000000
(1510873686.988634) can0 339#0000000000000000
(1510873687.002387) can0 42C#0060000020000000
(1510873687.002630) can0 43C#0060000020000000
(1510873687.002877) can0 44C#0060000020000000
(1510873687.037308) can0 207#0000C0FF68011400
(1510873687.037537) can0 227#400371100800ECD1
(1510873687.037790) can0 237#4441001700000000
(1510873687.038018) can0 247#667D890300002600
(1510873687.038280) can0 717#0500000000000000
(1510873687.038694) can0 209#0000C0FF68011400
(1510873687.038922) can0 229#480306100300ECD1
(1510873687.039160) can0 239#4441001700000000
(1510873687.039395) can0 249#667D890300002600
(1510873687.039640) can0 20B#0000000068011400
(1510873687.039870) can0 22B#7A0301111000ECD1
(1510873687.040110) can0 23B#4441001700000000
(1510873687.040346) can0 24B#667D890300002600
(1510873687.040601) can0 36B#0000000000000000
(1510873687.040858) can0 719#040000000D090500
(1510873687.047146) can0 217#004000007F020000
(1510873687.048520) can0 219#00807E007F020000
(1510873687.049168) can0 21B#0000000082020000
(1510873687.049414) can0 37B#0000000000000000
(1510873687.059256) can0 34B#0000000000000000
(1510873687.069256) can0 35B#0000000000000000
(1510873687.079250) can0 32B#0000000000000000
(1510873687.083950) can0 45C#0000093E00000000
(1510873687.084081) can0 10C#1C00
(1510873687.084229) can0 549#1CFF
(1510873687.084384) can0 547#1CFF
(1510873687.084485) can0 54B#1CFF
(1510873687.089250) can0 33B#0000000000000000
(1510873687.102390) can0 42C#0060000020000000
(1510873687.102633) can0 43C#0060000020000000
(1510873687.102881) can0 44C#0060000020000000
(1510873687.137266) can0 207#0000C0FF68011400
(1510873687.137496) can0 227#4C0377100800ECD1
(1510873687.137741) can0 237#4441001700000000
(1510873687.137973) can0 247#667D890300002600
(1510873687.138207) can0 717#06008D3999010040
(1510873687.138665) can0 209#0000C0FF68011400
(1510873687.138896) can0 229#4F030E100200ECD1
(1510873687.139137) can0 239#4441001700000000
(1510873687.139378) can0 20B#0000C0FF68011400
(1510873687.139612) can0 22B#7E0300110800ECD1
(1510873687.139853) can0 23B#4441001700000000
(1510873687.140088) can0 249#667D890300002600
(1510873687.140324) can0 24B#667D890300002600
(1510873687.140570) can0 719#0500000000000000
(1510873687.140815) can0 71B#040000000D090100
(1510873687.147094) can0 217#004000007F020000
(1510873687.148511) can0 219#00807E007F020000
(1510873687.149143) can0 21B#0000000082020000
(1510873687.183954) can0 45C#0000093E00000000
(1510873687.202395) can0 42C#0060000020000000
(1510873687.202638) can0 43C#0060000020000000
(1510873687.202884) can0 44C#0060000020000000
(1510873687.237243) can0 207#0000000068011400
(1510873687.237471) can0 227#56037B100600ECD1
(1510873687.237714) can0 237#4441001700000000
(1510873687.237947) can0 247#667D890300002600
(1510873687.238193) can0 717#0700000002260000
(1510873687.238652) can0 209#0000000068011400
(1510873687.238890) can0 229#4F0306100200ECD1
(1510873687.239120) can0 239#4441001700000000
(1510873687.239361) can0 20B#0000C0FF68011400
(1510873687.239595) can0 22B#8903FC100300ECD1
(1510873687.239835) can0 23B#4441001700000000
(1510873687.240071) can0 249#667D890300002600
(1510873687.240307) can0 24B#667D890300002600
(1510873687.240545) can0 719#0600813999010040
(1510873687.240789) can0 71B#0500000000000000
(1510873687.247079) can0 217#004000007F020000
(1510873687.248496) can0 219#00807E007F020000
(1510873687.249100) can0 21B#0000000082020000
(1510873687.283993) can0 45C#0000093E00000000
(1510873687.284086) can0 10C#1D00
(1510873687.284243) can0 547#1DFF
(1510873687.284368) can0 549#1DFF
(1510873687.284500) can0 54B#1DFF
(1510873687.302408) can0 42C#0060000020000000
(1510873687.302641) can0 43C#0060000020000000
(1510873687.302888) can0 44C#0060000020000000
(1510873687.337248) can0 207#0000C0FF68011400
(1510873687.337473) can0 227#630381100900ECD1
(1510873687.337721) can0 237#4441001700000000
(1510873687.337950) can0 247#667D890300002600
(1510873687.338191) can0 717#0800000069390000
(1510873687.338631) can0 209#0000C0FF68011400
(1510873687.338858) can0 229#55030B100500ECD1
(1510873687.339098) can0 239#4441001700000000
(1510873687.339339) can0 20B#0000C0FF68011400
(1510873687.339574) can0 22B#9803FF100400ECD1
(1510873687.339815) can0 23B#4441001700000000
(1510873687.340051) can0 249#667D890300002600
(1510873687.340298) can0 24B#667D890300002600
(1510873687.340533) can0 719#0700000002260000
(1510873687.340782) can0 71B#0600793999010040
(1510873687.347065) can0 217#004000007F020000
(1510873687.348455) can0 219#00807E007F020000
(1510873687.349105) can0 21B#0000000082020000
(1510873687.383961) can0 45C#0000093E00000000
(1510873687.402401) can0 42C#0060000020000000
(1510873687.402642) can0 43C#0060000020000000
(1510873687.402891) can0 44C#0060000020000000
(1510873687.437189) can0 207#0000C0FF68011400
(1510873687.437417) can0 227#68037E100700ECD1
(1510873687.437671) can0 237#4441001700000000
(1510873687.437903) can0 247#667D890300002600
(1510873687.438135) can0 717#0900693900000000
(1510873687.438632) can0 209#0000000068011400
(1510873687.438874) can0 229#68030B100B00ECD1
(1510873687.439098) can0 239#4441001700000000
(1510873687.439339) can0 20B#0000C0FF68011400
(1510873687.439577) can0 22B#9B03FC100900ECD1
(1510873687.439811) can0 23B#4441001700000000
(1510873687.440048) can0 249#667D890300002600
(1510873687.440288) can0 24B#667D890300002600
(1510873687.440527) can0 719#0800000081390000
(1510873687.440778) can0 71B#0700000002260000
(1510873687.447049) can0 217#004000007F020000
(1510873687.448460) can0 219#00807E007F020000
(1510873687.449069) can0 21B#0000000082020000
(1510873687.483969) can0 45C#0000093E00000000
(1510873687.484088) can0 10C#1E00
(1510873687.484238) can0 547#1EFF
(1510873687.484378) can0 549#1EFF
(1510873687.484502) can0 54B#1EFF
(1510873687.502408) can0 42C#0060000020000000
(1510873687.502646) can0 43C#0060000020000000
(1510873687.502893) can0 44C#0060000020000000
(1510873687.537185) can0 207#0000C0FF68011400
(1510873687.537412) can0 227#6B037D100300ECD1
(1510873687.537655) can0 237#4441001700000000
(1510873687.537890) can0 247#667D890300002600
(1510873687.538137) can0 717#0A00000000000000
(1510873687.538604) can0 209#0000000068011400
(1510873687.538830) can0 229#68030A100700ECD1
(1510873687.539070) can0 239#4441001700000000
(1510873687.539317) can0 20B#0000000068011400
(1510873687.539564) can0 22B#A103FE100800ECD1
(1510873687.539788) can0 23B#4441001700000000
(1510873687.540027) can0 249#667D890300002600
(1510873687.540263) can0 24B#667D890300002600
(1510873687.540505) can0 719#0900813900000000
(1510873687.540742) can0 71B#0800000079390000
(1510873687.547009) can0 217#004000007F020000
(1510873687.548433) can0 219#00807E007F020000
(1510873687.549062) can0 21B#0000000082020000
(1510873687.583972) can0 45C#0000093E00000000
(1510873687.602407) can0 42C#0060000020000000
(1510873687.602652) can0 43C#0060000020000000
(1510873687.602897) can0 44C#0060000020000000
(1510873687.637173) can0 207#0000C0FF68011400
(1510873687.637395) can0 227#760384100A00ECD1
(1510873687.637650) can0 237#4441001700000000
(1510873687.637891) can0 247#667D890300002600
(1510873687.638122) can0 717#0B00000000000000
(1510873687.638567) can0 209#0000000068011400
(1510873687.638798) can0 229#7E0318100200ECD1
(1510873687.639037) can0 239#4441001700000000
(1510873687.639288) can0 20B#0000000068011400
(1510873687.639519) can0 22B#AF03FF101900ECD1
(1510873687.639760) can0 23B#4441001700000000
(1510873687.640000) can0 249#667D890300002600
(1510873687.640234) can0 24B#667D890300002600
(1510873687.640504) can0 719#0A00000000000000
(1510873687.640725) can0 71B#0900393900000000
(1510873687.647029) can0 217#004000007F020000
(1510873687.648390) can0 219#00807E0080020000
(1510873687.649047) can0 21B#0000000082020000
(1510873687.683979) can0 45C#0000093E00000000
(1510873687.684100) can0 10C#1F00
(1510873687.684242) can0 547#1FFF
(1510873687.684402) can0 549#1FFF
(1510873687.684515) can0 54B#1FFF
(1510873687.702419) can0 42C#0060000020000000
(1510873687.702652) can0 43C#0060000020000000
(1510873687.702899) can0 44C#0060000020000000
(1510873687.737137) can0 207#0000000068011400
(1510873687.737359) can0 227#790387100400ECD1
(1510873687.737603) can0 237#4441001700000000
(1510873687.737838) can0 247#667D890300002600
(1510873687.738079) can0 717#0C01000000060100
(1510873687.738571) can0 209#0000C0FF68011400
(1510873687.738799) can0 229#810312101000ECD1
(1510873687.739042) can0 239#4441001700000000
(1510873687.739285) can0 20B#0000C0FF68011400
(1510873687.739515) can0 22B#B303FF100700ECD1
(1510873687.739756) can0 23B#4441001700000000
(1510873687.739993) can0 249#667D890300002600
(1510873687.740228) can0 24B#667D890300002600
(1510873687.740475) can0 719#0B00000000000000
(1510873687.740720) can0 71B#0A00000000000000
(1510873687.746949) can0 217#004000007F020000
(1510873687.748398) can0 219#00807E007F020000
(1510873687.749007) can0 21B#0000000082020000
(1510873687.784016) can0 45C#0000093E00000000
(1510873687.802435) can0 42C#0060000020000000
(1510873687.802660) can0 43C#0060000020000000
(1510873687.802902) can0 44C#0060000020000000
(1510873687.837034) can0 367#0000000000000000
(1510873687.837271) can0 207#0000C0FF68011400
(1510873687.837507) can0 227#8B0389100A00ECD1
(1510873687.837743) can0 237#4441001700000000
(1510873687.837978) can0 247#667D890300002600
(1510873687.838220) can0 717#0E00000266170000
(1510873687.838532) can0 209#0000000068011400
(1510873687.838761) can0 229#8E0316100700ECD1
(1510873687.838999) can0 239#4441001700000000
(1510873687.839249) can0 20B#0000000068011400
(1510873687.839477) can0 22B#C10308110900ECD1
(1510873687.839721) can0 23B#4441001700000000
(1510873687.839956) can0 249#667D890300002600
(1510873687.840192) can0 24B#667D890300002600
(1510873687.840448) can0 719#0C01000000060100
(1510873687.840680) can0 71B#0B00000000000000
(1510873687.846957) can0 217#004000007F020000
(1510873687.847188) can0 377#0000000000000000
(1510873687.848341) can0 219#00807E0080020000
(1510873687.849004) can0 21B#0000000082020000
(1510873687.857036) can0 347#0000000000000000
(1510873687.867028) can0 357#0000000000000000
(1510873687.877025) can0 327#0000000000000000
(1510873687.883976) can0 45C#0000093E00000000
(1510873687.884107) can0 10C#2000
(1510873687.884253) can0 549#20FF
(1510873687.884363) can0 547#20FF
(1510873687.884524) can0 54B#20FF
(1510873687.887024) can0 337#0000000000000000
(1510873687.902416) can0 42C#0060000020000000
(1510873687.902657) can0 43C#0060000020000000
(1510873687.902903) can0 44C#0060000020000000
(1510873687.937098) can0 207#0000C0FF68011400
(1510873687.937325) can0 227#940381100200ECD1
(1510873687.937568) can0 237#4441001700000000
(1510873687.937803) can0 247#667D890300002600
(1510873687.938039) can0 717#0F00C701AA0E0000
(1510873687.938433) can0 369#0000000000000000
(1510873687.938674) can0 209#0000C0FF68011400
(1510873687.938902) can0 229#950317100200ECD1
(1510873687.939148) can0 20B#0000000068011400
(1510873687.939384) can0 22B#C4030A111A00ECD1
(1510873687.939620) can0 239#4441001700000000
(1510873687.939855) can0 23B#4441001700000000
(1510873687.940093) can0 249#667D890300002600
(1510873687.940328) can0 24B#667D890300002600
(1510873687.940566) can0 719#0E00000266170000
(1510873687.940807) can0 71B#0C01000000060100
(1510873687.946943) can0 217#004000007F020000
(1510873687.948353) can0 219#00807E007F020000
(1510873687.948597) can0 379#0000000000000000
(1510873687.948965) can0 21B#0000000082020000
(1510873687.958434) can0 349#0000000000000000
(1510873687.968430) can0 359#0000000000000000
(1510873687.978429) can0 329#0000000000000000
(1510873687.983978) can0 45C#0000093E00000000
(1510873687.988426) can0 339#0000000000000000
(1510873688.002419) can0 42C#0060000020000000
(1510873688.002661) can0 43C#0060000020000000
(1510873688.002909) can0 44C#0060000020000000
(1510873688.037087) can0 207#0000000068011400
(1510873688.037310) can0 227#970385100900ECD1
(1510873688.037557) can0 237#4441001700000000
(1510873688.037792) can0 247#667D890300002600
(1510873688.038034) can0 717#1003000015000000
(1510873688.038484) can0 209#0000C0FF68011400
(1510873688.038716) can0 229#9F0314100500ECD1
(1510873688.038959) can0 239#4441001700000000
(1510873688.039190) can0 249#667D890300002600
(1510873688.039438) can0 20B#0000C0FF68011400
(1510873688.039662) can0 22B#CE0307110B00ECD1
(1510873688.039903) can0 23B#4441001700000000
(1510873688.040140) can0 24B#667D890300002600
(1510873688.040391) can0 36B#0000000000000000
(1510873688.040624) can0 719#0F00C701B60E0000
(1510873688.040861) can0 71B#0E00000266170000
(1510873688.046894) can0 217#004000007F020000
(1510873688.048332) can0 219#00807E007F020000
(1510873688.048957) can0 21B#0000000082020000
(1510873688.049203) can0 37B#0000000000000000
(1510873688.059047) can0 34B#0000000000000000
(1510873688.069049) can0 35B#0000000000000000
(1510873688.079043) can0 32B#0000000000000000
(1510873688.083983) can0 45C#0000093E00000000
(1510873688.084110) can0 10C#2100
(1510873688.084251) can0 547#21FF
(1510873688.084410) can0 549#21FF
(1510873688.084517) can0 54B#21FF
(1510873688.089042) can0 33B#0000000000000000
(1510873688.102446) can0 42C#0060000020000000
(1510873688.102661) can0 43C#0060000020000000
(1510873688.102911) can0 44C#0060000020000000
(1510873688.137129) can0 207#0000000068011400
(1510873688.137313) can0 227#9E0380100B00ECD1
(1510873688.137546) can0 237#4441001700000000
(1510873688.137786) can0 247#667D890300002600
(1510873688.138023) can0 717#110094F300000000
(1510873688.138471) can0 209#0000C0FF68011400
(1510873688.138705) can0 229#9E0312100700ECD1
(1510873688.138938) can0 239#4441001700000000
(1510873688.139184) can0 20B#0000000068011400
(1510873688.139414) can0 22B#DD0305110500ECD1
(1510873688.139656) can0 23B#4441001700000000
(1510873688.139892) can0 249#667D890300002600
(1510873688.140131) can0 24B#667D890300002600
(1510873688.140369) can0 719#10F40F0016000000
(1510873688.140604) can0 71B#0F00C701740E0000
(1510873688.146894) can0 217#004000007F020000
(1510873688.148286) can0 219#00807E0080020000
(1510873688.148946) can0 21B#0000000082020000
(1510873688.184000) can0 45C#0000093E00000000
(1510873688.202428) can0 42C#0060000020000000
(1510873688.202666) can0 43C#0060000020000000
(1510873688.202924) can0 44C#0060000020000000
(1510873688.237020) can0 207#0000C0FF68011400
(1510873688.237251) can0 227#A80383100800ECD1
(1510873688.237495) can0 237#4441001700000000
(1510873688.237750) can0 247#667D890300002600
(1510873688.237969) can0 717#1240290027001700
(1510873688.238469) can0 209#0000C0FF68011400
(1510873688.238691) can0 229#A90309100D00ECD1
(1510873688.238932) can0 239#4441001700000000
(1510873688.239178) can0 20B#0000C0FF68011400
(1510873688.239408) can0 22B#E50306110C00ECD1
(1510873688.239647) can0 23B#4441001700000000
(1510873688.239882) can0 249#667D890300002600
(1510873688.240121) can0 24B#667D890300002600
(1510873688.240367) can0 719#1100EDF300000000
(1510873688.240608) can0 71B#1000000017000000
(1510873688.246873) can0 217#004000007F020000
(1510873688.248290) can0 219#00807E0080020000
(1510873688.248910) can0 21B#0000000082020000
(1510873688.284024) can0 45C#0000093E00000000
(1510873688.284120) can0 10C#2200
(1510873688.284268) can0 549#22FF
(1510873688.284372) can0 547#22FF
(1510873688.284525) can0 54B#22FF
(1510873688.302439) can0 42C#0060000020000000
(1510873688.302672) can0 43C#0060000020000000
(1510873688.302919) can0 44C#0060000020000000
(1510873688.337038) can0 207#0000000068011400
(1510873688.337267) can0 227#AF037B100A00ECD1
(1510873688.337510) can0 237#4441001700000000
(1510873688.337743) can0 247#667D890300002600
(1510873688.337991) can0 717#1300000000000000
(1510873688.338427) can0 209#0000000068011400
(1510873688.338656) can0 229#AE030A100500ECD1
(1510873688.338897) can0 239#4441001700000000
(1510873688.339141) can0 20B#0000000068011400
(1510873688.339374) can0 22B#ED0303110C00ECD1
(1510873688.339614) can0 23B#4441001700000000
(1510873688.339850) can0 249#667D890300002600
(1510873688.340086) can0 24B#667D890300002600
(1510873688.340322) can0 719#1240290027001600
(1510873688.340566) can0 71B#110031F300000000
(1510873688.346838) can0 217#004000007F020000
(1510873688.348235) can0 219#00807E0080020000
(1510873688.348908) can0 21B#0000000082020000
(1510873688.383990) can0 45C#0000093E00000000
(1510873688.402429) can0 42C#0060000020000000
(1510873688.402672) can0 43C#0060000020000000
(1510873688.402921) can0 44C#0060000020000000
(1510873688.436994) can0 207#0000C0FF68011400
(1510873688.437226) can0 227#B70375100700ECD1
(1510873688.437468) can0 237#4441001700000000
(1510873688.437701) can0 247#667D890300002600
(1510873688.437950) can0 717#1400000026000000
(1510873688.438431) can0 209#0000000068011400
(1510873688.438658) can0 229#BA030F100E00ECD1
(1510873688.438891) can0 239#4441001700000000
(1510873688.439136) can0 20B#0000000068011400
(1510873688.439370) can0 22B#F203FB101100ECD1
(1510873688.439613) can0 23B#4441001700000000
(1510873688.439847) can0 249#667D890300002600
(1510873688.440082) can0 24B#667D890300002600
(1510873688.440327) can0 719#1300000000000000
(1510873688.440568) can0 71B#1240290027001600
(1510873688.446844) can0 217#004000007F020000
(1510873688.448240) can0 219#00807E0080020000
(1510873688.448875) can0 21B#0000000082020000
(1510873688.483995) can0 45C#0000093E00000000
(1510873688.484119) can0 10C#2300
(1510873688.484267) can0 549#23FF
(1510873688.484421) can0 547#23FF
(1510873688.484533) can0 54B#23FF
(1510873688.502434) can0 42C#0060000020000000
(1510873688.502676) can0 43C#0060000020000000
(1510873688.502924) can0 44C#0060000020000000
(1510873688.536954) can0 207#0000C0FF68011400
(1510873688.537183) can0 227#B80379100100ECD1
(1510873688.537425) can0 237#4441001700000000
(1510873688.537661) can0 247#667D890300002600
(1510873688.538392) can0 209#0000000068011400
(1510873688.538625) can0 229#B90308100D00ECD1
(1510873688.538866) can0 239#4441001700000000
(1510873688.539111) can0 20B#0000000068011400
(1510873688.539341) can0 22B#F603FE100B00ECD1
(1510873688.539582) can0 23B#4441001700000000
(1510873688.539818) can0 249#667D890300002600
(1510873688.540053) can0 24B#667D890300002600
(1510873688.540301) can0 719#14000000F6FF0000
(1510873688.540542) can0 71B#1300000000000000
(1510873688.546773) can0 217#004000007F020000
(1510873688.548227) can0 219#00807E0080020000
(1510873688.548844) can0 21B#0000000082020000
(1510873688.584000) can0 45C#0000093E00000000
(1510873688.602433) can0 42C#0060000020000000
(1510873688.602677) can0 43C#0060000020000000
(1510873688.602925) can0 44C#0060000020000000
(1510873688.636951) can0 207#0000000068011400
(1510873688.637184) can0 227#C70377100D00ECD1
(1510873688.637425) can0 237#4441001700000000
(1510873688.637663) can0 247#667D890300002600
(1510873688.637907) can0 717#1600000000007139
(1510873688.638375) can0 209#0000C0FF68011400
(1510873688.638607) can0 229#BF0301100500ECD1
(1510873688.638847) can0 239#4441001700000000
(1510873688.639084) can0 20B#0000C0FF68011400
(1510873688.639328) can0 22B#FB03FB100700ECD1
(1510873688.639579) can0 23B#4441001700000000
(1510873688.639794) can0 249#667D890300002600
(1510873688.640026) can0 24B#667D890300002600
(1510873688.640271) can0 71B#1400000019000000
(1510873688.646791) can0 217#004000007F020000
(1510873688.648177) can0 219#00807E0080020000
(1510873688.648850) can0 21B#0000000082020000
(1510873688.684001) can0 45C#0000093E00000000
(1510873688.684126) can0 10C#2400
(1510873688.684272) can0 547#24FF
(1510873688.684422) can0 549#24FF
(1510873688.684533) can0 54B#24FF
(1510873688.702437) can0 42C#0060000020000000
(1510873688.702681) can0 43C#0060000020000000
(1510873688.702928) can0 44C#0060000020000000
(1510873688.736916) can0 207#0000C0FF68011400
(1510873688.737137) can0 227#CC037A100600ECD1
(1510873688.737384) can0 237#4441001700000000
(1510873688.737617) can0 247#667D890300002600
(1510873688.737860) can0 717#1700003001001001
(1510873688.738357) can0 209#0000C0FF68011400
(1510873688.738586) can0 229#C40302100600ECD1
(1510873688.738827) can0 239#4441001700000000
(1510873688.739069) can0 20B#0000C0FF68011400
(1510873688.739303) can0 22B#0C04FB100C00ECD1
(1510873688.739545) can0 23B#4441001700000000
(1510873688.739780) can0 249#667D890300002600
(1510873688.740017) can0 24B#667D890300002600
(1510873688.740261) can0 719#1600000000008539
(1510873688.746735) can0 217#004000007F020000
(1510873688.748180) can0 219#00807E0080020000
(1510873688.748800) can0 21B#0000000082020000
(1510873688.784041) can0 45C#0000093E00000000
(1510873688.802455) can0 42C#0060000020000000
(1510873688.802686) can0 43C#0060000020000000
(1510873688.802933) can0 44C#0060000020000000
(1510873688.836809) can0 367#0000000000000000
(1510873688.837047) can0 207#0000C0FF68011400
(1510873688.837275) can0 227#D9037A100600ECD1
(1510873688.837535) can0 237#4441001700000000
(1510873688.837778) can0 247#667D890300002600
(1510873688.837999) can0 717#1800660600000000
(1510873688.838333) can0 209#0000000068011400
(1510873688.838555) can0 229#D103FC0F0600ECD1
(1510873688.838804) can0 239#4441001700000000
(1510873688.839048) can0 20B#0000C0FF68011400
(1510873688.839279) can0 22B#0D04F7100400ECD1
(1510873688.839520) can0 23B#4441001700000000
(1510873688.839755) can0 249#667D890300002600
(1510873688.840016) can0 24B#667D890300002600
(1510873688.840230) can0 719#1700037001007001
(1510873688.840468) can0 71B#1600000000007539
(1510873688.846750) can0 217#004000007F020000
(1510873688.846979) can0 377#0000000000000000
(1510873688.848160) can0 219#00807E0080020000
(1510873688.848802) can0 21B#0000000082020000
(1510873688.856824) can0 347#0000000000000000
(1510873688.866813) can0 357#0000000000000000
(1510873688.876811) can0 327#0000000000000000
(1510873688.884001) can0 45C#0000093E00000000
(1510873688.884126) can0 10C#2500
(1510873688.884330) can0 549#25FF
(1510873688.884400) can0 547#25FF
(1510873688.884538) can0 54B#25FF
(1510873688.886808) can0 337#0000000000000000
(1510873688.902444) can0 42C#0060000020000000
(1510873688.902687) can0 43C#0060000020000000
(1510873688.902936) can0 44C#0060000020000000
(1510873688.936924) can0 207#0000C0FF68011400
(1510873688.937103) can0 227#DC037D100800ECD1
(1510873688.937357) can0 237#4441001700000000
(1510873688.937589) can0 247#667D890300002600
(1510873688.937845) can0 717#1900000000000000
(1510873688.938240) can0 369#0000000000000000
(1510873688.938492) can0 209#0000000068011400
(1510873688.938718) can0 229#D20301100E00ECD1
(1510873688.938960) can0 20B#0000C0FF68011400
(1510873688.939197) can0 22B#1304FA100E00ECD1
(1510873688.939428) can0 239#4441001700000000
(1510873688.939669) can0 23B#4441001700000000
(1510873688.939906) can0 249#667D890300002600
(1510873688.940134) can0 24B#667D890300002600
(1510873688.940379) can0 719#1800660600000000
(1510873688.940628) can0 71B#1700025001005001
(1510873688.946755) can0 217#004000007F020000
(1510873688.948164) can0 219#00807E0080020000
(1510873688.948385) can0 379#0000000000000000
(1510873688.948790) can0 21B#0000000082020000
(1510873688.958316) can0 349#0000000000000000
(1510873688.968286) can0 359#0000000000000000
(1510873688.978264) can0 329#0000000000000000
(1510873688.984014) can0 45C#0000093E00000000
(1510873688.988230) can0 339#0000000000000000
(1510873689.002457) can0 42C#0060000020000000
(1510873689.002692) can0 43C#0060000020000000
(1510873689.002959) can0 44C#0060000020000000
(1510873689.036944) can0 207#0000C0FF68011400
(1510873689.037072) can0 227#E70380100D00ECD1
(1510873689.037335) can0 237#4441001700000000
(1510873689.037552) can0 247#667D890300002600
(1510873689.037798) can0 717#01000000CC0C6000
(1510873689.038350) can0 209#0000C0FF68011400
(1510873689.038539) can0 229#E40305100B00ECD1
(1510873689.038779) can0 239#4441001700000000
(1510873689.039011) can0 249#667D890300002600
(1510873689.039255) can0 20B#0000C0FF68011400
(1510873689.039483) can0 22B#1B04F7100600ECD1
(1510873689.039730) can0 23B#4441001700000000
(1510873689.039972) can0 24B#667D890300002600
(1510873689.040221) can0 36B#0000000000000000
(1510873689.040464) can0 719#1900000000000000
(1510873689.040708) can0 71B#1800660600000000
(1510873689.046716) can0 217#004000007F020000
(1510873689.048151) can0 219#00807E0080020000
(1510873689.048758) can0 21B#0000000082020000
(1510873689.048992) can0 37B#0000000000000000
(1510873689.058896) can0 34B#0000000000000000
(1510873689.068876) can0 35B#0000000000000000
(1510873689.078858) can0 32B#0000000000000000
(1510873689.084027) can0 45C#0000093E00000000
(1510873689.084111) can0 10C#2600
(1510873689.084341) can0 549#26FF
(1510873689.084417) can0 547#26FF
(1510873689.084554) can0 54B#26FF
(1510873689.088871) can0 33B#0000000000000000
(1510873689.102453) can0 42C#0060000020000000
(1510873689.102692) can0 43C#0060000020000000
(1510873689.102939) can0 44C#0060000020000000
(1510873689.136871) can0 207#0000C0FF68011400
(1510873689.137091) can0 227#EB037E100700ECD1
(1510873689.137332) can0 237#4441001700000000
(1510873689.137567) can0 247#667D890300002600
(1510873689.137813) can0 717#0200000000000000
(1510873689.138265) can0 209#0000000068011400
(1510873689.138500) can0 229#E80305100500ECD1
(1510873689.138740) can0 239#4441001700000000
(1510873689.138987) can0 20B#0000000068011400
(1510873689.139218) can0 22B#1E04FB100500ECD1
(1510873689.139458) can0 23B#4441001700000000
(1510873689.139694) can0 249#667D890300002600
(1510873689.139929) can0 24B#667D890300002600
(1510873689.140172) can0 719#01000000CC0C6000
(1510873689.140418) can0 71B#1900000000000000
(1510873689.146663) can0 217#004000007F020000
(1510873689.148074) can0 219#00807E0080020000
(1510873689.148738) can0 21B#0000000082020000
(1510873689.184018) can0 45C#0000093E00000000
(1510873689.202454) can0 42C#0060000020000000
(1510873689.202696) can0 43C#0060000020000000
(1510873689.202945) can0 44C#0060000020000000
(1510873689.236826) can0 207#0000000068011400
(1510873689.237070) can0 227#F00380100500ECD1
(1510873689.237308) can0 237#4441001700000000
(1510873689.237539) can0 247#667D890300002600
(1510873689.238286) can0 209#0000C0FF68011400
(1510873689.238495) can0 229#EB0303100C00ECD1
(1510873689.238755) can0 239#4441001700000000
(1510873689.238986) can0 20B#0000C0FF68011400
(1510873689.239228) can0 22B#2604FD100600ECD1
(1510873689.239457) can0 23B#4441001700000000
(1510873689.239688) can0 249#667D890300002600
(1510873689.239923) can0 24B#667D890300002600
(1510873689.240171) can0 719#0200000000000000
(1510873689.240412) can0 71B#01000000CC0C6000
(1510873689.246637) can0 217#004000007F020000
(1510873689.248080) can0 219#00807E0080020000
(1510873689.248697) can0 21B#0000000082020000
(1510873689.284051) can0 45C#0000093E00000000
(1510873689.284144) can0 10C#2700
(1510873689.284342) can0 549#27FF
(1510873689.284412) can0 547#27FF
(1510873689.284556) can0 54B#27FF
(1510873689.302461) can0 42C#0060000020000000
(1510873689.302700) can0 43C#0060000020000000
(1510873689.302948) can0 44C#0060000020000000
(1510873689.336783) can0 207#0000C0FF68011400
(1510873689.337005) can0 227#FA0385100A00ECD1
(1510873689.337255) can0 237#4441001700000000
(1510873689.337489) can0 247#667D890300002600
(1510873689.337729) can0 717#040000000D090200
(1510873689.338246) can0 209#0000000068011400
(1510873689.338485) can0 229#F503FF0F0400ECD1
(1510873689.338723) can0 239#4441001700000000
(1510873689.338970) can0 20B#0000000068011400
(1510873689.339204) can0 22B#310401110800ECD1
(1510873689.339452) can0 23B#4441001700000000
(1510873689.339689) can0 249#667D890300002600
(1510873689.339916) can0 24B#667D890300002600
(1510873689.340163) can0 71B#0200000000000000
(1510873689.346611) can0 217#004000007F020000
(1510873689.348068) can0 219#00807E0080020000
(1510873689.348700) can0 21B#0000000082020000
(1510873689.384017) can0 45C#0000093E00000000
(1510873689.402460) can0 42C#0060000020000000
(1510873689.402703) can0 43C#0060000020000000
(1510873689.402951) can0 44C#0060000020000000
(1510873689.436795) can0 207#0000000068011400
(1510873689.437064) can0 227#FE038D100600ECD1
(1510873689.437270) can0 237#4441001700000000
(1510873689.437508) can0 247#667D890300002600
(1510873689.437798) can0 717#0500000000000000
(1510873689.438234) can0 209#0000C0FF68011400
(1510873689.438443) can0 229#F80300101000ECD1
(1510873689.438704) can0 239#4441001700000000
(1510873689.438924) can0 20B#0000C0FF68011400
(1510873689.439155) can0 22B#420407110600ECD1
(1510873689.439397) can0 23B#4441001700000000
(1510873689.439635) can0 249#667D890300002600
(1510873689.439867) can0 24B#667D890300002600
(1510873689.440109) can0 719#040000000D090200
(1510873689.446613) can0 217#004000007F020000
(1510873689.448015) can0 219#00807E0080020000
(1510873689.448683) can0 21B#0000000082020000
(1510873689.484023) can0 45C#0000093E00000000
(1510873689.484150) can0 10C#2800
(1510873689.484342) can0 547#28FF
(1510873689.484405) can0 549#28FF
(1510873689.484569) can0 54B#28FF
(1510873689.502466) can0 42C#0060000020000000
(1510873689.502705) can0 43C#0060000020000000
(1510873689.502952) can0 44C#0060000020000000
(1510873689.536767) can0 207#0000000068011400
(1510873689.536998) can0 227#010487100800ECD1
(1510873689.537242) can0 237#4441001700000000
(1510873689.537475) can0 247#667D890300002600
(1510873689.537711) can0 717#0600C53899010040
(1510873689.538196) can0 209#0000C0FF68011400
(1510873689.538431) can0 229#040406100D00ECD1
(1510873689.538672) can0 239#4441001700000000
(1510873689.538920) can0 20B#0000000068011400
(1510873689.539153) can0 22B#3F0405111000ECD1
(1510873689.539392) can0 23B#4441001700000000
(1510873689.539628) can0 249#667D890300002600
(1510873689.539865) can0 24B#667D890300002600
(1510873689.540111) can0 719#0500000000000000
(1510873689.540355) can0 71B#040000000D090100
(1510873689.546560) can0 217#004000007F020000
(1510873689.548019) can0 219#00807E0080020000
(1510873689.548641) can0 21B#0000000082020000
(1510873689.584030) can0 45C#0000093E00000000
(1510873689.602467) can0 42C#0060000020000000
(1510873689.602710) can0 43C#0060000020000000
(1510873689.602957) can0 44C#0060000020000000
(1510873689.636757) can0 207#0000000068011400
(1510873689.636985) can0 227#0C048B100200ECD1
(1510873689.637237) can0 237#4441001700000000
(1510873689.637470) can0 247#667D890300002600
(1510873689.637715) can0 717#0700000002260000
(1510873689.638179) can0 209#0000C0FF68011400
(1510873689.638439) can0 229#090408100C00ECD1
(1510873689.638643) can0 239#4441001700000000
(1510873689.638886) can0 20B#0000C0FF68011400
(1510873689.639114) can0 22B#4A0412110700ECD1
(1510873689.639358) can0 23B#4441001700000000
(1510873689.639598) can0 249#667D890300002600
(1510873689.639831) can0 24B#667D890300002600
(1510873689.640070) can0 719#06006D3999010040
(1510873689.640317) can0 71B#0500000000000000
(1510873689.646588) can0 217#004000007F020000
(1510873689.647984) can0 219#00807E0080020000
(1510873689.648641) can0 21B#0000000082020000
(1510873689.684031) can0 45C#0000093E00000000
(1510873689.684155) can0 10C#2900
(1510873689.684357) can0 549#29FF
(1510873689.684421) can0 547#29FF
(1510873689.684568) can0 54B#29FF
(1510873689.702468) can0 42C#0060000020000000
(1510873689.702711) can0 43C#0060000020000000
(1510873689.702958) can0 44C#0060000020000000
(1510873689.736699) can0 207#0000000068011400
(1510873689.736929) can0 227#10048A100800ECD1
(1510873689.737174) can0 237#4441001700000000
(1510873689.737407) can0 247#667D890300002600
(1510873689.737647) can0 717#0800000029390000
(1510873689.738168) can0 209#0000000068011400
(1510873689.738400) can0 229#0C0405100700ECD1
(1510873689.738640) can0 239#4441001700000000
(1510873689.738884) can0 20B#0000C0FF68011400
(1510873689.739114) can0 22B#50040B110500ECD1
(1510873689.739353) can0 23B#4441001700000000
(1510873689.739588) can0 249#667D890300002600
(1510873689.739824) can0 24B#667D890300002600
(1510873689.740066) can0 719#0700000002260000
(1510873689.740299) can0 71B#0600C53899010040
(1510873689.746541) can0 217#004000007F020000
(1510873689.747984) can0 219#00807E0080020000
(1510873689.748621) can0 21B#0000000082020000
(1510873689.784077) can0 45C#0000093E00000000
(1510873689.802518) can0 42C#0060000020000000
(1510873689.802715) can0 43C#0060000020000000
(1510873689.802967) can0 44C#0060000020000000
(1510873689.836668) can0 367#0000000000000000
(1510873689.836855) can0 207#0000000068011400
(1510873689.837091) can0 227#18048A100800ECD1
(1510873689.837342) can0 237#4441001700000000
(1510873689.837569) can0 247#667D890300002600
(1510873689.837810) can0 717#0900093900000000
(1510873689.838131) can0 209#0000000068011400
(1510873689.838361) can0 229#1F040E101100ECD1
(1510873689.838601) can0 239#4441001700000000
(1510873689.838850) can0 20B#0000000068011400
(1510873689.839094) can0 22B#580409110400ECD1
(1510873689.839321) can0 23B#4441001700000000
(1510873689.839556) can0 249#667D890300002600
(1510873689.839791) can0 24B#667D890300002600
(1510873689.840035) can0 719#0800000085390000
(1510873689.840284) can0 71B#0700000002260000
(1510873689.846562) can0 217#004000007F020000
(1510873689.846745) can0 377#0000000000000000
(1510873689.847975) can0 219#00807E0080020000
(1510873689.848591) can0 21B#0000000082020000
(1510873689.856644) can0 347#0000000000000000
(1510873689.866640) can0 357#0000000000000000
(1510873689.876677) can0 327#0000000000000000
(1510873689.884092) can0 45C#0000093E00000000
(1510873689.884185) can0 10C#2A00
(1510873689.884343) can0 549#2AFF
(1510873689.884426) can0 547#2AFF
(1510873689.884582) can0 54B#2AFF
(1510873689.886636) can0 337#0000000000000000
(1510873689.902525) can0 42C#0060000020000000
(1510873689.902722) can0 43C#0060000020000000
(1510873689.902968) can0 44C#0060000020000000
(1510873689.936755) can0 207#0000C0FF68011400
(1510873689.936932) can0 227#1B0488100300ECD1
(1510873689.937172) can0 237#4441001700000000
(1510873689.937402) can0 247#667D890300002600
(1510873689.937648) can0 717#0A00000000000000
(1510873689.938040) can0 369#0000000000000000
(1510873689.938272) can0 209#0000C0FF68011400
(1510873689.938509) can0 229#1D040C100C00ECD1
(1510873689.938757) can0 239#4441001700000000
(1510873689.938995) can0 20B#0000C0FF68011400
(1510873689.939222) can0 22B#5C040A110500ECD1
(1510873689.939463) can0 23B#4441001700000000
(1510873689.939697) can0 249#667D890300002600
(1510873689.939938) can0 24B#667D890300002600
(1510873689.940173) can0 719#0900853900000000
(1510873689.940414) can0 71B#0800000031390000
(1510873689.946558) can0 217#004000007F020000
(1510873689.947939) can0 219#00807E0080020000
(1510873689.948172) can0 379#0000000000000000
(1510873689.948592) can0 21B#0000000082020000
(1510873689.958088) can0 349#0000000000000000
(1510873689.968072) can0 359#0000000000000000
(1510873689.978098) can0 329#0000000000000000
(1510873689.984085) can0 45C#0000093E00000000
(1510873689.988078) can0 339#0000000000000000
(1510873690.002526) can0 42C#0060000020000000
(1510873690.002725) can0 43C#0060000020000000
(1510873690.002970) can0 44C#0060000020000000
(1510873690.036698) can0 207#0000000068011400
(1510873690.036879) can0 227#19048A100500ECD1
(1510873690.037118) can0 237#4441001700000000
(1510873690.037353) can0 247#667D890300002600
(1510873690.037593) can0 717#0B00000000000000
(1510873690.038110) can0 209#0000C0FF68011400
(1510873690.038342) can0 229#1E0410100400ECD1
(1510873690.038585) can0 239#4441001700000000
(1510873690.038842) can0 249#667D890300002600
(1510873690.039065) can0 20B#0000000068011400
(1510873690.039293) can0 22B#5D0402110200ECD1
(1510873690.039538) can0 23B#4441001700000000
(1510873690.039775) can0 24B#667D890300002600
(1510873690.040031) can0 36B#0000000000000000
(1510873690.040266) can0 719#0A00000000000000
(1510873690.040505) can0 71B#0900713900000000
(1510873690.046516) can0 217#004000007F020000
(1510873690.047936) can0 219#00807E0080020000
(1510873690.048540) can0 21B#0000000083020000
(1510873690.048785) can0 37B#0000000000000000
(1510873690.058710) can0 34B#0000000000000000
(1510873690.068709) can0 35B#0000000000000000
(1510873690.078705) can0 32B#0000000000000000
(1510873690.084083) can0 45C#0000093E00000000
(1510873690.084183) can0 10C#2B00
(1510873690.084407) can0 547#2BFF
(1510873690.084486) can0 549#2BFF
(1510873690.084594) can0 54B#2BFF
(1510873690.088693) can0 33B#0000000000000000
(1510873690.102539) can0 42C#0060000020000000
(1510873690.102727) can0 43C#0060000020000000
(1510873690.102970) can0 44C#0060000020000000
(1510873690.136706) can0 207#0000000068011400
(1510873690.136879) can0 227#250485101400ECD1
(1510873690.137116) can0 237#4441001700000000
(1510873690.137355) can0 247#667D890300002600
(1510873690.137597) can0 717#0C01000000060100
(1510873690.138073) can0 209#0000000068011400
(1510873690.138313) can0 229#250406100300ECD1
(1510873690.138543) can0 239#4441001700000000
(1510873690.138800) can0 20B#0000000068011400
(1510873690.139022) can0 22B#680402110600ECD1
(1510873690.139260) can0 23B#4441001700000000
(1510873690.139496) can0 249#667D890300002600
(1510873690.139733) can0 24B#667D890300002600
(1510873690.139978) can0 719#0B00000000000000
(1510873690.140225) can0 71B#0A00000000000000
(1510873690.146502) can0 217#004000007F020000
(1510873690.147900) can0 219#00807E0080020000
(1510873690.148547) can0 21B#0000000083020000
(1510873690.184126) can0 45C#0000093E00000000
(1510873690.202546) can0 42C#0060000020000000
(1510873690.202735) can0 43C#0060000020000000
(1510873690.202977) can0 44C#0060000020000000
(1510873690.236640) can0 207#0000000068011400
(1510873690.236843) can0 227#1D0482100600ECD1
(1510873690.237074) can0 237#4441001700000000
(1510873690.237310) can0 247#667D890300002600
(1510873690.237543) can0 717#0E000002C6200000
(1510873690.238051) can0 209#0000C0FF68011400
(1510873690.238273) can0 229#290402100F00ECD1
(1510873690.238524) can0 239#4441001700000000
(1510873690.238782) can0 20B#0000C0FF68011400
(1510873690.238999) can0 22B#6A0400110300ECD1
(1510873690.239231) can0 23B#4441001700000000
(1510873690.239468) can0 249#667D890300002600
(1510873690.239707) can0 24B#667D890300002600
(1510873690.239952) can0 719#0C01000000060100
(1510873690.240193) can0 71B#0B00000000000000
(1510873690.246476) can0 217#004000007F020000
(1510873690.247899) can0 219#00807E0080020000
(1510873690.248536) can0 21B#0000000083020000
(1510873690.284118) can0 45C#0000093E00000000
(1510873690.284226) can0 10C#2C00
(1510873690.284378) can0 54B#2CFF
(1510873690.284451) can0 547#2CFF
(1510873690.284608) can0 549#2CFF
(1510873690.302552) can0 42C#0060000020000000
(1510873690.302735) can0 43C#0060000020000000
(1510873690.302978) can0 44C#0060000020000000
(1510873690.336618) can0 207#0000C0FF68011400
(1510873690.336811) can0 227#2D0480101100ECD1
(1510873690.337042) can0 237#4441001700000000
(1510873690.337280) can0 247#667D890300002600
(1510873690.337516) can0 717#0F00C701260C0000
(1510873690.338027) can0 209#0000000068011400
(1510873690.338256) can0 229#330408100900ECD1
(1510873690.338496) can0 239#4441001700000000
(1510873690.338743) can0 20B#0000C0FF68011400
(1510873690.338971) can0 22B#6A0400110900ECD1
(1510873690.339209) can0 23B#4441001700000000
(1510873690.339446) can0 249#667D890300002600
(1510873690.339682) can0 24B#667D890300002600
(1510873690.339922) can0 719#0E000002C6200000
(1510873690.340163) can0 71B#0C01000000060100
(1510873690.346442) can0 217#004000007F020000
(1510873690.347881) can0 219#00807E0080020000
(1510873690.348484) can0 21B#0000000083020000
(1510873690.384114) can0 45C#0000093E00000000
(1510873690.402551) can0 42C#0060000020000000
(1510873690.402741) can0 43C#0060000020000000
(1510873690.402982) can0 44C#0060000020000000
(1510873690.436639) can0 207#0000C0FF68011400
(1510873690.436815) can0 227#2E0480100B00ECD1
(1510873690.437061) can0 237#4441001700000000
(1510873690.437294) can0 247#667D890300002600
(1510873690.437535) can0 717#1003000015000000
(1510873690.438008) can0 209#0000C0FF68011400
(1510873690.438245) can0 229#2F0404100700ECD1
(1510873690.438496) can0 239#4441001700000000
(1510873690.438734) can0 20B#0000000068011400
(1510873690.438956) can0 22B#6C0401110900ECD1
(1510873690.439196) can0 23B#4441001700000000
(1510873690.439432) can0 249#667D890300002600
(1510873690.439667) can0 24B#667D890300002600
(1510873690.439910) can0 719#0F00C701220C0000
(1510873690.440158) can0 71B#0E000002C6200000
(1510873690.446458) can0 217#004000007F020000
(1510873690.447837) can0 219#00807E0080020000
(1510873690.448496) can0 21B#0000000083020000
(1510873690.484115) can0 45C#0000093E00000000
(1510873690.484221) can0 10C#2D00
(1510873690.484359) can0 547#2DFF
(1510873690.484433) can0 549#2DFF
(1510873690.484600) can0 54B#2DFF
(1510873690.502550) can0 42C#0060000020000000
(1510873690.502759) can0 43C#0060000020000000
(1510873690.502985) can0 44C#0060000020000000
(1510873690.536601) can0 207#0000000068011400
(1510873690.536775) can0 227#2B0481100E00ECD1
(1510873690.537022) can0 237#4441001700000000
(1510873690.537246) can0 247#667D890300002600
(1510873690.537489) can0 717#110093F300000000
(1510873690.538008) can0 209#0000C0FF68011400
(1510873690.538231) can0 229#350409100B00ECD1
(1510873690.538472) can0 239#4441001700000000
(1510873690.538714) can0 20B#0000C0FF68011400
(1510873690.538946) can0 22B#730400110800ECD1
(1510873690.539187) can0 23B#4441001700000000
(1510873690.539422) can0 249#667D890300002600
(1510873690.539689) can0 24B#667D890300002600
(1510873690.539897) can0 719#10F40F0016000000
(1510873690.540131) can0 71B#0F00C701E90B0000
(1510873690.546402) can0 217#004000007F020000
