(1510592737.219615) can0 5E7#003F070100000001
(1510592737.219800) can0 5EB#003F070100000001
(1510592737.220056) can0 5E9#003F070100000001
(1510592737.342210) can0 217#000000006E020000
(1510592737.342442) can0 21B#00C07F0070020000
(1510592737.342684) can0 219#00C07F006F020000
(1510592737.415204) can0 45C#0000093E00000000
(1510592737.423384) can0 42C#0060000020010000
(1510592737.423628) can0 43C#0060000020010000
(1510592737.423874) can0 44C#0060000020010000
(1510592737.433461) can0 42C#0060000020000000
(1510592737.433665) can0 43C#0060000020000000
(1510592737.433915) can0 44C#0060000020000000
(1510592737.515013) can0 45C#0000093E00000000
(1510592737.515137) can0 10C#0100
(1510592737.533445) can0 42C#0060000020000000
(1510592737.533681) can0 43C#0060000020000000
(1510592737.533928) can0 44C#0060000020000000
(1510592737.556663) can0 5E7#003F070100000001
(1510592737.615040) can0 45C#0000093E00000000
(1510592737.633438) can0 42C#0060000020000000
(1510592737.633680) can0 43C#0060000020000000
(1510592737.633929) can0 44C#0060000020000000
(1510592737.657933) can0 5E9#003F070100000001
(1510592737.679310) can0 217#000000006E020000
(1510592737.715015) can0 45C#0000093E00000000
(1510592737.715145) can0 10C#0200
(1510592737.715305) can0 547#02FF
(1510592737.733448) can0 42C#0060000020000000
(1510592737.733685) can0 43C#0060000020000000
(1510592737.733933) can0 44C#0060000020000000
(1510592737.758494) can0 5EB#003F070100000001
(1510592737.769499) can0 207#0000C0FF00040400
(1510592737.769723) can0 227#8C008A10D100ECD1
(1510592737.769963) can0 237#4641001700000000
(1510592737.770205) can0 247#007D890300002600
(1510592737.770452) can0 717#0200000000000000
(1510592737.779310) can0 217#000000007D020000
(1510592737.780619) can0 219#00C07F006F020000
(1510592737.815018) can0 45C#0000093E00000000
(1510592737.833442) can0 42C#0060000020000000
(1510592737.833685) can0 43C#0060000020000000
(1510592737.833933) can0 44C#0060000020000000
(1510592737.869460) can0 207#0000C0FF68051400
(1510592737.869686) can0 227#9B009310CA00ECD1
(1510592737.869926) can0 237#4641001700000000
(1510592737.870160) can0 247#667D890300002600
(1510592737.870820) can0 209#0002800000040400
(1510592737.871052) can0 229#A6000F104601ECD1
(1510592737.871292) can0 239#4541001700000000
(1510592737.871530) can0 249#007D890300002600
(1510592737.871778) can0 719#0200000000000000
(1510592737.879275) can0 217#000000007D020000
(1510592737.880625) can0 219#00C07F007E020000
(1510592737.881249) can0 21B#00C07F0070020000
(1510592737.915013) can0 45C#0000093E00000000
(1510592737.915138) can0 10C#0300
(1510592737.915302) can0 547#03FF
(1510592737.915433) can0 549#03FF
(1510592737.915567) can0 54B#03FF
(1510592737.933454) can0 42C#0060000020000000
(1510592737.933690) can0 43C#0060000020000000
(1510592737.933938) can0 44C#0060000020000000
(1510592737.969459) can0 207#0000C0FF68051400
(1510592737.969682) can0 227#B9008410BA00ECD1
(1510592737.969923) can0 237#4641001700000000
(1510592737.970156) can0 247#667D890300002600
(1510592737.970399) can0 717#040000000D090700
(1510592737.970781) can0 209#0002800068051400
(1510592737.971013) can0 229#C30010102301ECD1
(1510592737.971253) can0 239#4541001700000000
(1510592737.971501) can0 20B#0000000000040400
(1510592737.971730) can0 22B#BC000B111401ECD1
(1510592737.971970) can0 23B#4541001700000000
(1510592737.972206) can0 249#667D890300002600
(1510592737.972443) can0 24B#007D890300002600
(1510592737.972692) can0 71B#0200000000000000
(1510592737.979271) can0 217#000000007D020000
(1510592737.980616) can0 219#00807F007E020000
(1510592737.981213) can0 21B#00C07F0080020000
(1510592738.015015) can0 45C#0000093E00000000
(1510592738.033449) can0 42C#0060000020000000
(1510592738.033693) can0 43C#0060000020000000
(1510592738.033941) can0 44C#0060000020000000
(1510592738.069418) can0 207#0000C0FF68051400
(1510592738.069641) can0 227#D3007F10A800ECD1
(1510592738.069882) can0 237#4641001700000000
(1510592738.070115) can0 247#667D890300002600
(1510592738.070361) can0 717#0500000000000000
(1510592738.070767) can0 209#0002800068051400
(1510592738.070997) can0 229#DC000F101501ECD1
(1510592738.071248) can0 239#4541001700000000
(1510592738.071485) can0 20B#0000000068071400
(1510592738.071715) can0 22B#E70024110E01ECD1
(1510592738.071954) can0 23B#4541001700000000
(1510592738.072190) can0 249#667D890300002600
(1510592738.072426) can0 24B#667D890300002600
(1510592738.072666) can0 719#040000000D092C00
(1510592738.079253) can0 217#000000007D020000
(1510592738.080564) can0 219#00807F007E020000
(1510592738.081220) can0 21B#00C07F0080020000
(1510592738.115053) can0 45C#0000093E00000000
(1510592738.115132) can0 10C#0400
(1510592738.115304) can0 549#04FF
(1510592738.115429) can0 547#04FF
(1510592738.115562) can0 54B#04FF
(1510592738.133468) can0 42C#0060000020000000
(1510592738.133695) can0 43C#0060000020000000
(1510592738.133942) can0 44C#0060000020000000
(1510592738.169401) can0 207#0000C0FF68051400
(1510592738.169622) can0 227#E8008B109900ECD1
(1510592738.169862) can0 237#4641001700000000
(1510592738.170096) can0 247#667D890300002600
(1510592738.170330) can0 717#0600D53899010040
(1510592738.170759) can0 209#0002800068051400
(1510592738.170990) can0 229#FA001410CE00ECD1
(1510592738.171231) can0 239#4541001700000000
(1510592738.171478) can0 20B#0000000068071400
(1510592738.171707) can0 22B#04011F11EF00ECD1
(1510592738.171947) can0 23B#4541001700000000
(1510592738.172183) can0 249#667D890300002600
(1510592738.172419) can0 24B#667D890300002600
(1510592738.172665) can0 719#0500000000000000
(1510592738.172905) can0 71B#040000000D090300
(1510592738.179207) can0 217#000000007D020000
(1510592738.180567) can0 219#00407F007E020000
(1510592738.181179) can0 21B#00C07F0080020000
(1510592738.215020) can0 45C#0000093E00000000
(1510592738.233455) can0 42C#0060000020000000
(1510592738.233696) can0 43C#0060000020000000
(1510592738.233944) can0 44C#0060000020000000
(1510592738.269397) can0 207#0000C0FF68051400
(1510592738.269621) can0 227#0C018F108800ECD1
(1510592738.269862) can0 237#4641001700000000
(1510592738.270096) can0 247#667D890300002600
(1510592738.270341) can0 717#0700000002260000
(1510592738.270720) can0 209#0002800068051400
(1510592738.270952) can0 229#18011D10C000ECD1
(1510592738.271192) can0 239#4541001700000000
(1510592738.271437) can0 20B#0000000068071400
(1510592738.271667) can0 22B#17011611E200ECD1
(1510592738.271908) can0 23B#4541001700000000
(1510592738.272143) can0 249#667D890300002600
(1510592738.272380) can0 24B#667D890300002600
(1510592738.272616) can0 719#0600C93799010040
(1510592738.272862) can0 71B#0500000000000000
(1510592738.279206) can0 217#000000007D020000
(1510592738.280528) can0 219#00407F007E020000
(1510592738.281179) can0 21B#00C07F0080020000
(1510592738.315024) can0 45C#0000093E00000000
(1510592738.315150) can0 10C#0500
(1510592738.315301) can0 547#05FF
(1510592738.315441) can0 549#05FF
(1510592738.315580) can0 54B#05FF
(1510592738.333467) can0 42C#0060000020000000
(1510592738.333701) can0 43C#0060000020000000
(1510592738.333949) can0 44C#0060000020000000
(1510592738.369351) can0 207#0000C0FF68051400
(1510592738.369578) can0 227#260189108300ECD1
(1510592738.369819) can0 237#4641001700000000
(1510592738.370052) can0 247#667D890300002600
(1510592738.370292) can0 717#0800000029390000
(1510592738.370711) can0 209#0002400068051400
(1510592738.370945) can0 229#2A011810B600ECD1
(1510592738.371185) can0 239#4541001700000000
(1510592738.371429) can0 20B#0000000068051400
(1510592738.371659) can0 22B#2F011311CF00ECD1
(1510592738.371900) can0 23B#4541001700000000
(1510592738.372135) can0 249#667D890300002600
(1510592738.372371) can0 24B#667D890300002600
(1510592738.372613) can0 719#0700000002260000
(1510592738.372849) can0 71B#0600493999010040
(1510592738.379169) can0 217#000000007D020000
(1510592738.380520) can0 219#00407F007E020000
(1510592738.381158) can0 21B#00C07F0080020000
(1510592738.415031) can0 45C#0000093E00000000
(1510592738.433458) can0 42C#0060000020000000
(1510592738.433702) can0 43C#0060000020000000
(1510592738.433950) can0 44C#0060000020000000
(1510592738.469340) can0 207#0000C0FF68051400
(1510592738.469567) can0 227#3A017C106B00ECD1
(1510592738.469808) can0 237#4641001700000000
(1510592738.470042) can0 247#667D890300002600
(1510592738.470282) can0 717#0900F53800000000
(1510592738.470677) can0 209#0002400068051400
(1510592738.470906) can0 229#40011010A300ECD1
(1510592738.471146) can0 239#4541001700000000
(1510592738.471390) can0 20B#0000000068051400
(1510592738.471619) can0 22B#51012011B700ECD1
(1510592738.471858) can0 23B#4541001700000000
(1510592738.472094) can0 249#667D890300002600
(1510592738.472330) can0 24B#667D890300002600
(1510592738.472572) can0 719#0800000059370000
(1510592738.472816) can0 71B#0700000002260000
(1510592738.479154) can0 217#000000007D020000
(1510592738.480512) can0 219#00007F007E020000
(1510592738.481124) can0 21B#00C07F0081020000
(1510592738.515030) can0 45C#0000093E00000000
(1510592738.515155) can0 10C#0600
(1510592738.515305) can0 549#06FF
(1510592738.515438) can0 547#06FF
(1510592738.515578) can0 54B#06FF
(1510592738.533472) can0 42C#0060000020000000
(1510592738.533707) can0 43C#0060000020000000
(1510592738.533954) can0 44C#0060000020000000
(1510592738.569305) can0 207#0000C0FF68031400
(1510592738.569531) can0 227#570181106000ECD1
(1510592738.569771) can0 237#4541001700000000
(1510592738.570005) can0 247#667D890300002600
(1510592738.570251) can0 717#0A00000000000000
(1510592738.570649) can0 209#0001400068051400
(1510592738.570877) can0 229#580112108E00ECD1
(1510592738.571117) can0 239#4541001700000000
(1510592738.571362) can0 20B#0000000068051400
(1510592738.571589) can0 22B#6A012111B000ECD1
(1510592738.571829) can0 23B#4541001700000000
(1510592738.572065) can0 249#667D890300002600
(1510592738.572301) can0 24B#667D890300002600
(1510592738.572543) can0 719#0900FD3700000000
(1510592738.572783) can0 71B#0800000031390000
(1510592738.579145) can0 217#000000007D020000
(1510592738.580461) can0 219#00007F007E020000
(1510592738.581116) can0 21B#00C07F0081020000
(1510592738.615062) can0 45C#0000093E00000000
(1510592738.633466) can0 42C#0060000020000000
(1510592738.633709) can0 43C#0060000020000000
(1510592738.633956) can0 44C#0060000020000000
(1510592738.669217) can0 367#0000000000000000
(1510592738.669455) can0 207#0000C0FF68031400
(1510592738.669683) can0 227#760187105D00ECD1
(1510592738.669924) can0 237#4541001700000000
(1510592738.670157) can0 247#667D890300002600
(1510592738.670403) can0 717#0B00000000000000
(1510592738.670652) can0 209#0001400068031400
(1510592738.670880) can0 229#68010B108D00ECD1
(1510592738.671120) can0 239#4541001700000000
(1510592738.671363) can0 20B#0000000068051400
(1510592738.671592) can0 22B#810119119200ECD1
(1510592738.671832) can0 23B#4541001700000000
(1510592738.672069) can0 249#667D890300002600
(1510592738.672304) can0 24B#667D890300002600
(1510592738.672550) can0 719#0A00000000000000
(1510592738.672793) can0 71B#0900353900000000
(1510592738.679100) can0 217#004000007D020000
(1510592738.679346) can0 377#0000000000000000
(1510592738.680466) can0 219#00007F007E020000
(1510592738.681076) can0 21B#00C07F0081020000
(1510592738.689214) can0 347#0000000000000000
(1510592738.699210) can0 357#0000000000000000
(1510592738.709209) can0 327#0000000000000000
(1510592738.715034) can0 45C#0000093E00000000
(1510592738.715163) can0 10C#0700
(1510592738.715317) can0 549#07FF
(1510592738.715453) can0 547#07FF
(1510592738.715586) can0 54B#07FF
(1510592738.719191) can0 337#0000000000000000
(1510592738.733472) can0 42C#0060000020000000
(1510592738.733712) can0 43C#0060000020000000
(1510592738.733959) can0 44C#0060000020000000
(1510592738.769299) can0 207#0000C0FF68031400
(1510592738.769520) can0 227#90018A105200ECD1
(1510592738.769760) can0 237#4541001700000000
(1510592738.769994) can0 247#667D890300002600
(1510592738.770236) can0 717#0C01000000060100
(1510592738.770543) can0 369#0000000000000000
(1510592738.770785) can0 209#0001400068031400
(1510592738.771016) can0 229#8B0113107B00ECD1
(1510592738.771259) can0 20B#0000C0FF68051400
(1510592738.771489) can0 22B#9A010F118C00ECD1
(1510592738.771729) can0 239#4541001700000000
(1510592738.771969) can0 23B#4541001700000000
(1510592738.772204) can0 249#667D890300002600
(1510592738.772441) can0 24B#667D890300002600
(1510592738.772686) can0 719#0B00000000000000
(1510592738.772934) can0 71B#0A00000000000000
(1510592738.779110) can0 217#004000007D020000
(1510592738.780453) can0 219#00007F007E020000
(1510592738.780703) can0 379#0000000000000000
(1510592738.781068) can0 21B#00C07F0081020000
(1510592738.790541) can0 349#0000000000000000
(1510592738.800539) can0 359#0000000000000000
(1510592738.810541) can0 329#0000000000000000
(1510592738.815036) can0 45C#0000093E00000000
(1510592738.820536) can0 339#0000000000000000
(1510592738.833469) can0 42C#0060000020000000
(1510592738.833712) can0 43C#0060000020000000
(1510592738.833961) can0 44C#0060000020000000
(1510592738.869247) can0 207#0000C0FF68031400
(1510592738.869476) can0 227#A30181105900ECD1
(1510592738.869716) can0 237#4641001700000000
(1510592738.869950) can0 247#667D890300002600
(1510592738.870193) can0 717#0E000002A6040000
(1510592738.870591) can0 209#0001400068031400
(1510592738.870820) can0 229#A40117106B00ECD1
(1510592738.871060) can0 239#4541001700000000
(1510592738.871296) can0 249#667D890300002600
(1510592738.871536) can0 20B#0000C0FF68031400
(1510592738.871763) can0 22B#B7010B117A00ECD1
(1510592738.872003) can0 23B#4541001700000000
(1510592738.872239) can0 24B#667D890300002600
(1510592738.872487) can0 36B#0000000000000000
(1510592738.872730) can0 719#0C01000000060100
(1510592738.872975) can0 71B#0B00000000000000
(1510592738.879078) can0 217#004000007D020000
(1510592738.880408) can0 219#00007F007E020000
(1510592738.881064) can0 21B#00C07F0081020000
(1510592738.881312) can0 37B#0000000000000000
(1510592738.891152) can0 34B#0000000000000000
(1510592738.901157) can0 35B#0000000000000000
(1510592738.911156) can0 32B#0000000000000000
(1510592738.915039) can0 45C#0000093E00000000
(1510592738.915167) can0 10C#0800
(1510592738.915323) can0 549#08FF
(1510592738.915450) can0 547#08FF
(1510592738.915591) can0 54B#08FF
(1510592738.921146) can0 33B#0000000000000000
(1510592738.933478) can0 42C#0060000020000000
(1510592738.933718) can0 43C#0060000020000000
(1510592738.933966) can0 44C#0060000020000000
(1510592738.969220) can0 207#0000C0FF68031400
(1510592738.969444) can0 227#C00182104300ECD1
(1510592738.969685) can0 237#4541001700000000
(1510592738.969919) can0 247#667D890300002600
(1510592738.970154) can0 717#0F00C7011B0C0000
(1510592738.970593) can0 209#0001400068031400
(1510592738.970823) can0 229#BA0107105D00ECD1
(1510592738.971063) can0 239#4541001700000000
(1510592738.971303) can0 20B#0000C0FF68031400
(1510592738.971529) can0 22B#D40116117100ECD1
(1510592738.971770) can0 23B#4541001700000000
(1510592738.972005) can0 249#667D890300002600
(1510592738.972241) can0 24B#667D890300002600
(1510592738.972481) can0 719#0E000002A6040000
(1510592738.972724) can0 71B#0C01000000060100
(1510592738.979041) can0 217#004000007D020000
(1510592738.980403) can0 219#00C07E007E020000
(1510592738.981019) can0 21B#00C07F0081020000
(1510592739.015044) can0 45C#0000093E00000000
(1510592739.033475) can0 42C#0060000020000000
(1510592739.033718) can0 43C#0060000020000000
(1510592739.033966) can0 44C#0060000020000000
(1510592739.069222) can0 207#0000C0FF68031400
(1510592739.069445) can0 227#D6017D103A00ECD1
(1510592739.069686) can0 237#4641001700000000
(1510592739.069919) can0 247#667D890300002600
(1510592739.070166) can0 717#1002000010000000
(1510592739.070554) can0 209#0001400068031400
(1510592739.070790) can0 229#CF0104105F00ECD1
(1510592739.071030) can0 239#4541001700000000
(1510592739.071274) can0 20B#0000000068031400
(1510592739.071500) can0 22B#F20116115D00ECD1
(1510592739.071740) can0 23B#4541001700000000
(1510592739.071976) can0 249#667D890300002600
(1510592739.072213) can0 24B#667D890300002600
(1510592739.072448) can0 719#0F00C601200C0000
(1510592739.072688) can0 71B#0E000002A6040000
(1510592739.079029) can0 217#004000007E020000
(1510592739.080367) can0 219#00C07E007E020000
(1510592739.081022) can0 21B#00C07F0081020000
(1510592739.115079) can0 45C#0000093E00000000
(1510592739.115160) can0 10C#0900
(1510592739.115337) can0 547#09FF
(1510592739.115463) can0 549#09FF
(1510592739.115609) can0 54B#09FF
(1510592739.133497) can0 42C#0060000020000000
(1510592739.133725) can0 43C#0060000020000000
(1510592739.133973) can0 44C#0060000020000000
(1510592739.169183) can0 207#0000C0FF68011400
(1510592739.169399) can0 227#E70185103500ECD1
(1510592739.169643) can0 237#4641001700000000
(1510592739.169877) can0 247#667D890300002600
(1510592739.170117) can0 717#110090F300000000
(1510592739.170560) can0 209#0001000068031400
(1510592739.170797) can0 229#E40100105300ECD1
(1510592739.171037) can0 239#4541001700000000
(1510592739.171280) can0 20B#0000000068031400
(1510592739.171509) can0 22B#0A0213115300ECD1
(1510592739.171749) can0 23B#4541001700000000
(1510592739.171985) can0 249#667D890300002600
(1510592739.172221) can0 24B#667D890300002600
(1510592739.172457) can0 719#10F70F0011000000
(1510592739.172697) can0 71B#0F00C6016E0E0000
(1510592739.178993) can0 217#004000007F020000
(1510592739.180372) can0 219#00C07E007F020000
(1510592739.181001) can0 21B#00C07F0081020000
(1510592739.215049) can0 45C#0000093E00000000
(1510592739.233483) can0 42C#0060000020000000
(1510592739.233725) can0 43C#0060000020000000
(1510592739.233974) can0 44C#0060000020000000
(1510592739.269184) can0 207#0000C0FF68011400
(1510592739.269408) can0 227#EF017C103500ECD1
(1510592739.269657) can0 237#4641001700000000
(1510592739.269881) can0 247#667D890300002600
(1510592739.270117) can0 717#1240250027001500
(1510592739.270510) can0 209#0001000068031400
(1510592739.270745) can0 229#FD0106104600ECD1
(1510592739.270984) can0 239#4541001700000000
(1510592739.271224) can0 20B#0000C0FF68031400
(1510592739.271456) can0 22B#1F0207114B00ECD1
(1510592739.271697) can0 23B#4541001700000000
(1510592739.271932) can0 249#667D890300002600
(1510592739.272169) can0 24B#667D890300002600
(1510592739.272406) can0 719#1100F0F300000000
(1510592739.272649) can0 71B#10FF0F0012000000
(1510592739.278989) can0 217#004000007F020000
(1510592739.280347) can0 219#00C07E007F020000
(1510592739.280960) can0 21B#00C07F0081020000
(1510592739.315053) can0 45C#0000093E00000000
(1510592739.315179) can0 10C#0A00
(1510592739.315330) can0 547#0AFF
(1510592739.315462) can0 549#0AFF
(1510592739.315593) can0 54B#0AFF
(1510592739.333497) can0 42C#0060000020000000
(1510592739.333731) can0 43C#0060000020000000
(1510592739.333978) can0 44C#0060000020000000
(1510592739.369120) can0 207#0000C0FF68011400
(1510592739.369355) can0 227#FF018C102E00ECD1
(1510592739.369594) can0 237#4641001700000000
(1510592739.369828) can0 247#667D890300002600
(1510592739.370076) can0 717#1300000000000000
(1510592739.370487) can0 209#0001000068011400
(1510592739.370721) can0 229#0A0210103900ECD1
(1510592739.370961) can0 239#4541001700000000
(1510592739.371200) can0 20B#0000C0FF68031400
(1510592739.371433) can0 22B#2D020A114B00ECD1
(1510592739.371673) can0 23B#4541001700000000
(1510592739.371909) can0 249#667D890300002600
(1510592739.372145) can0 24B#667D890300002600
(1510592739.372382) can0 719#1240250027001500
(1510592739.372625) can0 71B#11002CF300000000
(1510592739.378968) can0 217#004000007F020000
(1510592739.380296) can0 219#00C07E007F020000
(1510592739.380962) can0 21B#00C07F0081020000
(1510592739.415060) can0 45C#0000093E00000000
(1510592739.433486) can0 42C#0060000020000000
(1510592739.433730) can0 43C#0060000020000000
(1510592739.433978) can0 44C#0060000020000000
(1510592739.469102) can0 207#0000C0FF68011400
(1510592739.469324) can0 227#07028A102E00ECD1
(1510592739.469565) can0 237#4641001700000000
(1510592739.469799) can0 247#667D890300002600
(1510592739.470041) can0 717#14000000E8FF0000
(1510592739.470495) can0 209#0000000068011400
(1510592739.470733) can0 229#100208104400ECD1
(1510592739.470974) can0 239#4541001700000000
(1510592739.471215) can0 20B#0000C0FF68011400
(1510592739.471442) can0 22B#420215114D00ECD1
(1510592739.471682) can0 23B#4541001700000000
(1510592739.471917) can0 249#667D890300002600
(1510592739.472154) can0 24B#667D890300002600
(1510592739.472399) can0 719#1300000000000000
(1510592739.472638) can0 71B#123F250027001400
(1510592739.478924) can0 217#004000007F020000
(1510592739.480302) can0 219#00C07E007F020000
(1510592739.480911) can0 21B#00C07F0082020000
(1510592739.515058) can0 45C#0000093E00000000
(1510592739.515185) can0 10C#0B00
(1510592739.515338) can0 547#0BFF
(1510592739.515472) can0 549#0BFF
(1510592739.515612) can0 54B#0BFF
(1510592739.533497) can0 42C#0060000020000000
(1510592739.533734) can0 43C#0060000020000000
(1510592739.533982) can0 44C#0060000020000000
(1510592739.569103) can0 207#0000C0FF68011400
(1510592739.569330) can0 227#0D0287102100ECD1
(1510592739.569570) can0 237#4641001700000000
(1510592739.569804) can0 247#667D890300002600
(1510592739.570456) can0 209#0000000068011400
(1510592739.570690) can0 229#1C020C102B00ECD1
(1510592739.570931) can0 239#4541001700000000
(1510592739.571177) can0 20B#0000000068011400
(1510592739.571403) can0 22B#4D0215113A00ECD1
(1510592739.571644) can0 23B#4541001700000000
(1510592739.571879) can0 249#667D890300002600
(1510592739.572115) can0 24B#667D890300002600
(1510592739.572361) can0 719#1400000022000000
(1510592739.572608) can0 71B#1300000000000000
(1510592739.578931) can0 217#004000007F020000
(1510592739.580263) can0 219#00C07E007F020000
(1510592739.580917) can0 21B#00C07F0082020000
(1510592739.615090) can0 45C#0000093E00000000
(1510592739.633494) can0 42C#0060000020000000
(1510592739.633737) can0 43C#0060000020000000
(1510592739.633984) can0 44C#0060000020000000
(1510592739.668993) can0 367#0000000000000000
(1510592739.669231) can0 207#0000C0FF68011400
(1510592739.669465) can0 227#190288102200ECD1
(1510592739.669706) can0 237#4641001700000000
(1510592739.669939) can0 247#667D890300002600
(1510592739.670179) can0 717#1600000000004539
(1510592739.670458) can0 209#0000000068011400
(1510592739.670692) can0 229#2B0208103900ECD1
(1510592739.670932) can0 239#4541001700000000
(1510592739.671178) can0 20B#0000000068011400
(1510592739.671405) can0 22B#5D0219112900ECD1
(1510592739.671645) can0 23B#4541001700000000
(1510592739.671880) can0 249#667D890300002600
(1510592739.672116) can0 24B#667D890300002600
(1510592739.672360) can0 71B#14000000F9FF0000
(1510592739.678876) can0 217#004000007F020000
(1510592739.679122) can0 377#0000000000000000
(1510592739.680264) can0 219#00C07E007F020000
(1510592739.680892) can0 21B#00C07F0082020000
(1510592739.688987) can0 347#0000000000000000
(1510592739.698987) can0 357#0000000000000000
(1510592739.708984) can0 327#0000000000000000
(1510592739.715061) can0 45C#0000093E00000000
(1510592739.715193) can0 10C#0C00
(1510592739.715352) can0 549#0CFF
(1510592739.715466) can0 547#0CFF
(1510592739.715603) can0 54B#0CFF
(1510592739.718983) can0 337#0000000000000000
(1510592739.733499) can0 42C#0060000020000000
(1510592739.733738) can0 43C#0060000020000000
(1510592739.733985) can0 44C#0060000020000000
(1510592739.769070) can0 207#0000C0FF68011400
(1510592739.769297) can0 227#290284102A00ECD1
(1510592739.769537) can0 237#4641001700000000
(1510592739.769770) can0 247#667D890300002600
(1510592739.770010) can0 717#170000100100F000
(1510592739.770329) can0 369#0000000000000000
(1510592739.770577) can0 209#0000000068011400
(1510592739.770811) can0 229#2A0206102C00ECD1
(1510592739.771054) can0 20B#0000C0FF68011400
(1510592739.771281) can0 22B#6C021B113D00ECD1
(1510592739.771521) can0 239#4541001700000000
(1510592739.771761) can0 23B#4541001700000000
(1510592739.771997) can0 249#667D890300002600
(1510592739.772233) can0 24B#667D890300002600
(1510592739.772476) can0 719#1600000000006939
(1510592739.778880) can0 217#004000007F020000
(1510592739.780241) can0 219#00C07E007F020000
(1510592739.780491) can0 379#0000000000000000
(1510592739.780851) can0 21B#00C07F0082020000
(1510592739.790328) can0 349#0000000000000000
(1510592739.800326) can0 359#0000000000000000
(1510592739.810338) can0 329#0000000000000000
(1510592739.815062) can0 45C#0000093E00000000
(1510592739.820324) can0 339#0000000000000000
(1510592739.833498) can0 42C#0060000020000000
(1510592739.833742) can0 43C#0060000020000000
(1510592739.833990) can0 44C#0060000020000000
(1510592739.869010) can0 207#0000C0FF68011400
(1510592739.869244) can0 227#2F0280101C00ECD1
(1510592739.869485) can0 237#4641001700000000
(1510592739.869719) can0 247#667D890300002600
(1510592739.869959) can0 717#1800660600000000
(1510592739.870395) can0 209#0000000068011400
(1510592739.870627) can0 229#370206102600ECD1
(1510592739.870867) can0 239#4541001700000000
(1510592739.871103) can0 249#667D890300002600
(1510592739.871345) can0 20B#0000C0FF68011400
(1510592739.871573) can0 22B#780216112800ECD1
(1510592739.871814) can0 23B#4541001700000000
(1510592739.872049) can0 24B#667D890300002600
(1510592739.872297) can0 36B#0000000000000000
(1510592739.872540) can0 719#1700034001003001
(1510592739.872780) can0 71B#1600000000007539
(1510592739.878855) can0 217#004000007F020000
(1510592739.880205) can0 219#00807E007F020000
(1510592739.880856) can0 21B#00C07F0082020000
(1510592739.881103) can0 37B#0000000000000000
(1510592739.890947) can0 34B#0000000000000000
(1510592739.900948) can0 35B#0000000000000000
(1510592739.910947) can0 32B#0000000000000000
(1510592739.915066) can0 45C#0000093E00000000
(1510592739.915196) can0 10C#0D00
(1510592739.915353) can0 549#0DFF
(1510592739.915489) can0 547#0DFF
(1510592739.915620) can0 54B#0DFF
(1510592739.920936) can0 33B#0000000000000000
(1510592739.933500) can0 42C#0060000020000000
(1510592739.933745) can0 43C#0060000020000000
(1510592739.933992) can0 44C#0060000020000000
(1510592739.969006) can0 207#0000C0FF68011400
(1510592739.969231) can0 227#35027F101E00ECD1
(1510592739.969472) can0 237#4641001700000000
(1510592739.969705) can0 247#667D890300002600
(1510592739.969951) can0 717#1900000000000000
(1510592739.970402) can0 209#0000000068011400
(1510592739.970633) can0 229#430207101B00ECD1
(1510592739.970875) can0 239#4541001700000000
(1510592739.971119) can0 20B#0000000068011400
(1510592739.971346) can0 22B#790213112B00ECD1
(1510592739.971586) can0 23B#4541001700000000
(1510592739.971822) can0 249#667D890300002600
(1510592739.972058) can0 24B#667D890300002600
(1510592739.972304) can0 719#1800660600000000
(1510592739.972549) can0 71B#1700034001003001
(1510592739.978818) can0 217#004000007F020000
(1510592739.980210) can0 219#00807E007F020000
(1510592739.980816) can0 21B#00C07F0082020000
(1510592740.015101) can0 45C#0000093E00000000
(1510592740.033504) can0 42C#0060000020000000
(1510592740.033745) can0 43C#0060000020000000
(1510592740.033993) can0 44C#0060000020000000
(1510592740.068990) can0 207#0000C0FF68011400
(1510592740.069214) can0 227#440286101900ECD1
(1510592740.069455) can0 237#4641001700000000
(1510592740.069688) can0 247#667D890300002600
(1510592740.069930) can0 717#01000000CC0C6000
(1510592740.070350) can0 209#0000000068011400
(1510592740.070585) can0 229#430206103000ECD1
(1510592740.070825) can0 239#4541001700000000
(1510592740.071070) can0 20B#0000000068011400
(1510592740.071299) can0 22B#850210113500ECD1
(1510592740.071539) can0 23B#4541001700000000
(1510592740.071774) can0 249#667D890300002600
(1510592740.072011) can0 24B#667D890300002600
(1510592740.072257) can0 719#1900000000000000
(1510592740.072501) can0 71B#1800660600000000
(1510592740.078815) can0 217#004000007F020000
(1510592740.080161) can0 219#00807E007F020000
(1510592740.080820) can0 21B#00C07F0082020000
(1510592740.115107) can0 45C#0000093E00000000
(1510592740.115184) can0 10C#0E00
(1510592740.115358) can0 547#0EFF
(1510592740.115486) can0 549#0EFF
(1510592740.115626) can0 54B#0EFF
(1510592740.133514) can0 42C#0060000020000000
(1510592740.133750) can0 43C#0060000020000000
(1510592740.133997) can0 44C#0060000020000000
(1510592740.168947) can0 207#0000C0FF68011400
(1510592740.169171) can0 227#4E027A100D00ECD1
(1510592740.169412) can0 237#4641001700000000
(1510592740.169645) can0 247#667D890300002600
(1510592740.169891) can0 717#0200000000000000
(1510592740.170322) can0 209#0000000068011400
(1510592740.170552) can0 229#540207101700ECD1
(1510592740.170792) can0 239#4541001700000000
(1510592740.171034) can0 20B#0000C0FF68011400
(1510592740.171264) can0 22B#8B0210112500ECD1
(1510592740.171504) can0 23B#4541001700000000
(1510592740.171740) can0 249#667D890300002600
(1510592740.171976) can0 24B#667D890300002600
(1510592740.172218) can0 719#01000000CC0C6000
(1510592740.172465) can0 71B#1900000000000000
(1510592740.178765) can0 217#004000007F020000
(1510592740.180162) can0 219#00807E007F020000
(1510592740.180787) can0 21B#00C07F0082020000
(1510592740.215076) can0 45C#0000093E00000000
(1510592740.233512) can0 42C#0060000020000000
(1510592740.233754) can0 43C#0060000020000000
(1510592740.234002) can0 44C#0060000020000000
(1510592740.268925) can0 207#0000C0FF68011400
(1510592740.269151) can0 227#5B0278101600ECD1
(1510592740.269391) can0 237#4641001700000000
(1510592740.269625) can0 247#667D890300002600
(1510592740.270299) can0 209#0000000068011400
(1510592740.270532) can0 229#5F0208101700ECD1
(1510592740.270773) can0 239#4541001700000000
(1510592740.271015) can0 20B#0000C0FF68011400
(1510592740.271246) can0 22B#95020D113000ECD1
(1510592740.271487) can0 23B#4541001700000000
(1510592740.271722) can0 249#667D890300002600
(1510592740.271959) can0 24B#667D890300002600
(1510592740.272207) can0 719#0200000000000000
(1510592740.272448) can0 71B#01000000CC0C6000
(1510592740.278763) can0 217#004000007F020000
(1510592740.280143) can0 219#00807E007F020000
(1510592740.280757) can0 21B#00C07F0082020000
(1510592740.315079) can0 45C#0000093E00000000
(1510592740.315208) can0 10C#0F00
(1510592740.315375) can0 547#0FFF
(1510592740.315511) can0 549#0FFF
(1510592740.315650) can0 54B#0FFF
(1510592740.333522) can0 42C#0060000020000000
(1510592740.333757) can0 43C#0060000020000000
(1510592740.334004) can0 44C#0060000020000000
(1510592740.368941) can0 207#0000C0FF68011400
(1510592740.369172) can0 227#620280101C00ECD1
(1510592740.369412) can0 237#4641001700000000
(1510592740.369645) can0 247#667D890300002600
(1510592740.369885) can0 717#040000000D090200
(1510592740.370286) can0 209#0000000068011400
(1510592740.370522) can0 229#68020C101C00ECD1
(1510592740.370762) can0 239#4541001700000000
(1510592740.371004) can0 20B#0000C0FF68011400
(1510592740.371233) can0 22B#9E020C112300ECD1
(1510592740.371474) can0 23B#4541001700000000
(1510592740.371710) can0 249#667D890300002600
(1510592740.371946) can0 24B#667D890300002600
(1510592740.372194) can0 71B#0200000000000000
(1510592740.378752) can0 217#004000007F020000
(1510592740.380102) can0 219#00807E007F020000
(1510592740.380754) can0 21B#00C07F0082020000
(1510592740.415086) can0 45C#0000093E00000000
(1510592740.433514) can0 42C#0060000020000000
(1510592740.433757) can0 43C#0060000020000000
(1510592740.434005) can0 44C#0060000020000000
(1510592740.468884) can0 207#0000C0FF68011400
(1510592740.469115) can0 227#6E0280101200ECD1
(1510592740.469355) can0 237#4641001700000000
(1510592740.469589) can0 247#667D890300002600
(1510592740.469835) can0 717#0500000000000000
(1510592740.470280) can0 209#0000000068011400
(1510592740.470513) can0 229#6C0206100C00ECD1
(1510592740.470754) can0 239#4541001700000000
(1510592740.470999) can0 20B#0000000068011400
(1510592740.471231) can0 22B#A5020C112300ECD1
(1510592740.471472) can0 23B#4541001700000000
(1510592740.471707) can0 249#667D890300002600
(1510592740.471943) can0 24B#667D890300002600
(1510592740.472183) can0 719#040000000D090500
(1510592740.478699) can0 217#004000007F020000
(1510592740.480103) can0 219#00807E007F020000
(1510592740.480738) can0 21B#00C07F0082020000
(1510592740.515085) can0 45C#0000093E00000000
(1510592740.515210) can0 10C#1000
(1510592740.515356) can0 547#10FF
(1510592740.515487) can0 549#10FF
(1510592740.515618) can0 54B#10FF
(1510592740.533529) can0 42C#0060000020000000
(1510592740.533761) can0 43C#0060000020000000
(1510592740.534008) can0 44C#0060000020000000
(1510592740.568875) can0 207#0000C0FF68011400
(1510592740.569102) can0 227#710283100D00ECD1
(1510592740.569343) can0 237#4641001700000000
(1510592740.569576) can0 247#667D890300002600
(1510592740.569810) can0 717#0600953999010040
(1510592740.570240) can0 209#0000000068011400
(1510592740.570474) can0 229#75020F100300ECD1
(1510592740.570715) can0 239#4541001700000000
(1510592740.570961) can0 20B#0000000068011400
(1510592740.571191) can0 22B#B3020A111200ECD1
(1510592740.571432) can0 23B#4541001700000000
(1510592740.571667) can0 249#667D890300002600
(1510592740.571903) can0 24B#667D890300002600
(1510592740.572148) can0 719#0500000000000000
(1510592740.572393) can0 71B#040000000D090400
(1510592740.578703) can0 217#004000007F020000
(1510592740.580081) can0 219#00807E007F020000
(1510592740.580690) can0 21B#00C07F0082020000
(1510592740.615124) can0 45C#0000093E00000000
(1510592740.633520) can0 42C#0060000020000000
(1510592740.633763) can0 43C#0060000020000000
(1510592740.634010) can0 44C#0060000020000000
(1510592740.668778) can0 367#0000000000000000
(1510592740.669017) can0 207#0000C0FF68011400
(1510592740.669246) can0 227#81028D101700ECD1
(1510592740.669488) can0 237#4641001700000000
(1510592740.669721) can0 247#667D890300002600
(1510592740.669968) can0 717#0700000002260000
(1510592740.670218) can0 209#0000000068011400
(1510592740.670451) can0 229#84020B100400ECD1
(1510592740.670692) can0 239#4541001700000000
(1510592740.670933) can0 20B#0000C0FF68011400
(1510592740.671164) can0 22B#C30214111800ECD1
(1510592740.671404) can0 23B#4541001700000000
(1510592740.671639) can0 249#667D890300002600
(1510592740.671876) can0 24B#667D890300002600
(1510592740.672108) can0 719#0600913999010040
(1510592740.672354) can0 71B#0500000000000000
(1510592740.678679) can0 217#004000007F020000
(1510592740.678925) can0 377#0000000000000000
(1510592740.680044) can0 219#00807E007F020000
(1510592740.680692) can0 21B#00C07F0082020000
(1510592740.688774) can0 347#0000000000000000
(1510592740.698770) can0 357#0000000000000000
(1510592740.708768) can0 327#0000000000000000
(1510592740.715087) can0 45C#0000093E00000000
(1510592740.715213) can0 10C#1100
(1510592740.715369) can0 549#11FF
(1510592740.715486) can0 547#11FF
(1510592740.715619) can0 54B#11FF
(1510592740.718768) can0 337#0000000000000000
(1510592740.733520) can0 42C#0060000020000000
(1510592740.733765) can0 43C#0060000020000000
(1510592740.734014) can0 44C#0060000020000000
(1510592740.768829) can0 207#0000000068011400
(1510592740.769052) can0 227#840285100B00ECD1
(1510592740.769292) can0 237#4641001700000000
(1510592740.769526) can0 247#667D890300002600
(1510592740.769766) can0 717#0800000061390000
(1510592740.770130) can0 369#0000000000000000
(1510592740.770378) can0 209#0000000068011400
(1510592740.770610) can0 229#900211100C00ECD1
(1510592740.770857) can0 20B#0000000068011400
(1510592740.771083) can0 22B#C40213110E00ECD1
(1510592740.771323) can0 239#4541001700000000
(1510592740.771562) can0 23B#4541001700000000
(1510592740.771799) can0 249#667D890300002600
(1510592740.772034) can0 24B#667D890300002600
(1510592740.772276) can0 719#0700000002260000
(1510592740.772515) can0 71B#0600793999010040
(1510592740.778641) can0 217#004000007F020000
(1510592740.780047) can0 219#00807E007F020000
(1510592740.780296) can0 379#0000000000000000
(1510592740.780654) can0 21B#00C07F0082020000
(1510592740.790129) can0 349#0000000000000000
(1510592740.800127) can0 359#0000000000000000
(1510592740.810125) can0 329#0000000000000000
(1510592740.815090) can0 45C#0000093E00000000
(1510592740.820119) can0 339#0000000000000000
(1510592740.833584) can0 42C#0060000020000000
(1510592740.833771) can0 43C#0060000020000000
(1510592740.834030) can0 44C#0060000020000000
(1510592740.868881) can0 207#0000000068011400
(1510592740.869060) can0 227#8D0288100B00ECD1
(1510592740.869300) can0 237#4641001700000000
(1510592740.869597) can0 247#667D890300002600
(1510592740.869752) can0 717#0900613900000000
(1510592740.870181) can0 209#0000000068011400
(1510592740.870407) can0 229#920211100400ECD1
(1510592740.870646) can0 239#4541001700000000
(1510592740.870883) can0 249#667D890300002600
(1510592740.871126) can0 20B#0000000068011400
(1510592740.871359) can0 22B#D6021F111300ECD1
(1510592740.871602) can0 23B#4541001700000000
(1510592740.871838) can0 24B#667D890300002600
(1510592740.872080) can0 36B#0000000000000000
(1510592740.872323) can0 719#0800000089390000
(1510592740.872575) can0 71B#0700000002260000
(1510592740.878687) can0 217#004000007F020000
(1510592740.879993) can0 219#00807E007F020000
(1510592740.880643) can0 21B#00C07F0082020000
(1510592740.880890) can0 37B#0000000000000000
(1510592740.890809) can0 34B#0000000000000000
(1510592740.900796) can0 35B#0000000000000000
(1510592740.910747) can0 32B#0000000000000000
(1510592740.915091) can0 45C#0000093E00000000
(1510592740.915222) can0 10C#1200
(1510592740.915379) can0 549#12FF
(1510592740.915501) can0 547#12FF
(1510592740.915642) can0 54B#12FF
(1510592740.920750) can0 33B#0000000000000000
(1510592740.933532) can0 42C#0060000020000000
(1510592740.933769) can0 43C#0060000020000000
(1510592740.934016) can0 44C#0060000020000000
(1510592740.968826) can0 207#0000C0FF68011400
(1510592740.969006) can0 227#990289100700ECD1
(1510592740.969238) can0 237#4641001700000000
(1510592740.970641) can0 247#667D890300002600
(1510592740.970687) can0 717#0A00000000000000
(1510592740.970893) can0 20B#0000C0FF68011400
(1510592740.971291) can0 22B#E8021B111200ECD1
(1510592740.971356) can0 23B#4541001700000000
(1510592740.971794) can0 249#667D890300002600
(1510592740.971850) can0 24B#667D890300002600
(1510592740.972337) can0 719#0900853900000000
(1510592740.972391) can0 71B#0800000075390000
(1510592740.978648) can0 217#004000007F020000
(1510592740.980042) can0 219#00807E007F020000
(1510592740.980641) can0 21B#00C07F0082020000
(1510592741.015144) can0 45C#0000093E00000000
(1510592741.033579) can0 42C#0060000020000000
(1510592741.033776) can0 43C#0060000020000000
(1510592741.034024) can0 44C#0060000020000000
(1510592741.068810) can0 207#0000000068011400
(1510592741.069010) can0 227#A00283101100ECD1
(1510592741.069248) can0 237#4641001700000000
(1510592741.069481) can0 247#667D890300002600
(1510592741.069727) can0 717#0B00000000000000
(1510592741.070133) can0 209#0000000068011400
(1510592741.070366) can0 229#AA0204100900ECD1
(1510592741.070606) can0 239#4541001700000000
(1510592741.070848) can0 20B#0000C0FF68011400
(1510592741.071076) can0 22B#ED021C111900ECD1
(1510592741.071317) can0 23B#4541001700000000
(1510592741.071552) can0 249#667D890300002600
(1510592741.071789) can0 24B#667D890300002600
(1510592741.072035) can0 719#0A00000000000000
(1510592741.072273) can0 71B#0900793900000000
(1510592741.078588) can0 217#004000007F020000
(1510592741.079974) can0 219#00807E007F020000
(1510592741.080590) can0 21B#00C07F0082020000
(1510592741.115134) can0 45C#0000093E00000000
(1510592741.115212) can0 10C#1300
(1510592741.115384) can0 547#13FF
(1510592741.115509) can0 549#13FF
(1510592741.115644) can0 54B#13FF
(1510592741.133543) can0 42C#0060000020000000
(1510592741.133777) can0 43C#0060000020000000
(1510592741.134025) can0 44C#0060000020000000
(1510592741.168735) can0 207#0000C0FF68011400
(1510592741.168963) can0 227#AD0280100B00ECD1
(1510592741.169203) can0 237#4641001700000000
(1510592741.169437) can0 247#667D890300002600
(1510592741.169679) can0 717#0C01000000060100
(1510592741.170121) can0 209#0000000068011400
(1510592741.170352) can0 229#AB0209100600ECD1
(1510592741.170592) can0 239#4541001700000000
(1510592741.170837) can0 20B#0000000068011400
(1510592741.171066) can0 22B#FD021B111900ECD1
(1510592741.171306) can0 23B#4541001700000000
(1510592741.171541) can0 249#667D890300002600
(1510592741.171778) can0 24B#667D890300002600
(1510592741.172023) can0 719#0B00000000000000
(1510592741.172270) can0 71B#0A00000000000000
(1510592741.178575) can0 217#004000007F020000
(1510592741.179938) can0 219#00807E007F020000
(1510592741.180599) can0 21B#00C07F0082020000
(1510592741.215103) can0 45C#0000093E00000000
(1510592741.233537) can0 42C#0060000020000000
(1510592741.233779) can0 43C#0060000020000000
(1510592741.234027) can0 44C#0060000020000000
(1510592741.268707) can0 207#0000C0FF68011400
(1510592741.268936) can0 227#AB027F101600ECD1
(1510592741.269177) can0 237#4641001700000000
(1510592741.269410) can0 247#667D890300002600
(1510592741.269654) can0 717#0E000002060E0000
(1510592741.270116) can0 209#0000000068011400
(1510592741.270347) can0 229#B30209100500ECD1
(1510592741.270587) can0 239#4541001700000000
(1510592741.270828) can0 20B#0000C0FF68011400
(1510592741.271061) can0 22B#010316111100ECD1
(1510592741.271302) can0 23B#4541001700000000
(1510592741.271537) can0 249#667D890300002600
(1510592741.271773) can0 24B#667D890300002600
(1510592741.272015) can0 719#0C01000000060100
(1510592741.272262) can0 71B#0B00000000000000
(1510592741.278523) can0 217#004000007F020000
(1510592741.279939) can0 219#00807E007F020000
(1510592741.280549) can0 21B#00C07F0082020000
(1510592741.315106) can0 45C#0000093E00000000
(1510592741.315236) can0 10C#1400
(1510592741.315383) can0 547#14FF
(1510592741.315508) can0 549#14FF
(1510592741.315637) can0 54B#14FF
(1510592741.333543) can0 42C#0060000020000000
(1510592741.333782) can0 43C#0060000020000000
(1510592741.334030) can0 44C#0060000020000000
(1510592741.368699) can0 207#0000C0FF68011400
(1510592741.368932) can0 227#BA0281101000ECD1
(1510592741.369173) can0 237#4641001700000000
(1510592741.369406) can0 247#667D890300002600
(1510592741.369642) can0 717#0F00C701AE0E0000
(1510592741.370083) can0 209#0000C0FF68011400
(1510592741.370311) can0 229#BB02FF0F0D00ECD1
(1510592741.370551) can0 239#4541001700000000
(1510592741.370797) can0 20B#0000000068011400
(1510592741.371027) can0 22B#040319110E00ECD1
(1510592741.371267) can0 23B#4541001700000000
(1510592741.371503) can0 249#667D890300002600
(1510592741.371739) can0 24B#667D890300002600
(1510592741.371980) can0 719#0E000002060E0000
(1510592741.372223) can0 71B#0C01000000060100
(1510592741.378526) can0 217#004000007F020000
(1510592741.379901) can0 219#00807E007F020000
(1510592741.380551) can0 21B#00C07F0082020000
(1510592741.415112) can0 45C#0000093E00000000
(1510592741.433540) can0 42C#0060000020000000
(1510592741.433784) can0 43C#0060000020000000
(1510592741.434033) can0 44C#0060000020000000
(1510592741.468662) can0 207#0000C0FF68011400
(1510592741.468893) can0 227#BC027E101100ECD1
(1510592741.469133) can0 237#4641001700000000
(1510592741.469367) can0 247#667D890300002600
(1510592741.469612) can0 717#1003000015000000
(1510592741.470067) can0 209#0000000068011400
(1510592741.470297) can0 229#CA0205100D00ECD1
(1510592741.470538) can0 239#4541001700000000
(1510592741.470779) can0 20B#0000C0FF68011400
(1510592741.471007) can0 22B#0E0311111200ECD1
(1510592741.471247) can0 23B#4541001700000000
(1510592741.471484) can0 249#667D890300002600
(1510592741.471720) can0 24B#667D890300002600
(1510592741.471953) can0 719#0F00C701230C0000
(1510592741.472196) can0 71B#0E000002060E0000
(1510592741.478488) can0 217#004000007F020000
(1510592741.479898) can0 219#00807E007F020000
(1510592741.480531) can0 21B#00C07F0082020000
(1510592741.515111) can0 45C#0000093E00000000
(1510592741.515239) can0 10C#1500
(1510592741.515386) can0 54B#15FF
(1510592741.515519) can0 547#15FF
(1510592741.515656) can0 549#15FF
(1510592741.533547) can0 42C#0060000020000000
(1510592741.533788) can0 43C#0060000020000000
(1510592741.534035) can0 44C#0060000020000000
(1510592741.568666) can0 207#0000C0FF68011400
(1510592741.568892) can0 227#CB027E100600ECD1
(1510592741.569133) can0 237#4641001700000000
(1510592741.569367) can0 247#667D890300002600
(1510592741.569608) can0 717#110095F300000000
(1510592741.570040) can0 209#0000000068011400
(1510592741.570269) can0 229#C802F60F2900ECD1
(1510592741.570510) can0 239#4541001700000000
(1510592741.570755) can0 20B#0000000068011400
(1510592741.570985) can0 22B#130314111200ECD1
(1510592741.571226) can0 23B#4541001700000000
(1510592741.571462) can0 249#667D890300002600
(1510592741.571697) can0 24B#667D890300002600
(1510592741.571935) can0 719#10F50F0016000000
(1510592741.572173) can0 71B#0F00C701E20B0000
(1510592741.578489) can0 217#004000007F020000
(1510592741.579881) can0 219#00807E007F020000
(1510592741.580490) can0 21B#00C07F0082020000
(1510592741.615153) can0 45C#0000093E00000000
(1510592741.633549) can0 42C#0060000020000000
(1510592741.633791) can0 43C#0060000020000000
(1510592741.634039) can0 44C#0060000020000000
(1510592741.668552) can0 367#0000000000000000
(1510592741.668791) can0 207#0000C0FF68011400
(1510592741.669019) can0 227#D7027B100900ECD1
(1510592741.669260) can0 237#4641001700000000
(1510592741.669493) can0 247#667D890300002600
(1510592741.669730) can0 717#1240260027001700
(1510592741.670014) can0 209#0000000068011400
(1510592741.670241) can0 229#D702FF0F1A00ECD1
(1510592741.670482) can0 239#4541001700000000
(1510592741.670723) can0 20B#0000C0FF68011400
(1510592741.670953) can0 22B#15030E110F00ECD1
(1510592741.671193) can0 23B#4541001700000000
(1510592741.671428) can0 249#667D890300002600
(1510592741.671664) can0 24B#667D890300002600
(1510592741.671906) can0 719#1100F5F300000000
(1510592741.672149) can0 71B#10FF0F0018000000
(1510592741.678462) can0 217#004000007F020000
(1510592741.678707) can0 377#0000000000000000
(1510592741.679830) can0 219#00807E007F020000
(1510592741.680491) can0 21B#00C07F0082020000
(1510592741.688550) can0 347#0000000000000000
(1510592741.698543) can0 357#0000000000000000
(1510592741.708543) can0 327#0000000000000000
(1510592741.715116) can0 45C#0000093E00000000
(1510592741.715242) can0 10C#1600
(1510592741.715399) can0 549#16FF
(1510592741.715526) can0 547#16FF
(1510592741.715661) can0 54B#16FF
(1510592741.718543) can0 337#0000000000000000
(1510592741.733549) can0 42C#0060000020000000
(1510592741.733793) can0 43C#0060000020000000
(1510592741.734040) can0 44C#0060000020000000
(1510592741.768598) can0 207#0000C0FF68011400
(1510592741.768824) can0 227#DD027B100D00ECD1
(1510592741.769064) can0 237#4641001700000000
(1510592741.769297) can0 247#667D890300002600
(1510592741.769545) can0 717#1300000000000000
(1510592741.769928) can0 369#0000000000000000
(1510592741.770175) can0 209#0000000068011400
(1510592741.770406) can0 229#E70209101700ECD1
(1510592741.770652) can0 20B#0000000068011400
(1510592741.770887) can0 22B#23030C111200ECD1
(1510592741.771126) can0 239#4541001700000000
(1510592741.771366) can0 23B#4541001700000000
(1510592741.771602) can0 249#667D890300002600
(1510592741.771838) can0 24B#667D890300002600
(1510592741.772074) can0 719#1240290027001500
(1510592741.772317) can0 71B#11002BF300000000
(1510592741.778423) can0 217#004000007F020000
(1510592741.779835) can0 219#00807E007F020000
(1510592741.780084) can0 379#0000000000000000
(1510592741.780442) can0 21B#00C07F0082020000
(1510592741.789926) can0 349#0000000000000000
(1510592741.799924) can0 359#0000000000000000
(1510592741.809923) can0 329#0000000000000000
(1510592741.815117) can0 45C#0000093E00000000
(1510592741.819912) can0 339#0000000000000000
(1510592741.833551) can0 42C#0060000020000000
(1510592741.833794) can0 43C#0060000020000000
(1510592741.834042) can0 44C#0060000020000000
(1510592741.868599) can0 207#0000C0FF68011400
(1510592741.868833) can0 227#E4027C100300ECD1
(1510592741.869074) can0 237#4641001700000000
(1510592741.869307) can0 247#667D890300002600
(1510592741.869550) can0 717#14000000F5FF0000
(1510592741.869967) can0 209#0000C0FF68011400
(1510592741.870196) can0 229#EC020B101300ECD1
(1510592741.870437) can0 239#4541001700000000
(1510592741.870673) can0 249#667D890300002600
(1510592741.870914) can0 20B#0000C0FF68011400
(1510592741.871145) can0 22B#2F030E111200ECD1
(1510592741.871385) can0 23B#4541001700000000
(1510592741.871621) can0 24B#667D890300002600
(1510592741.871869) can0 36B#0000000000000000
(1510592741.872115) can0 719#1300000000000000
(1510592741.872351) can0 71B#123F290027001700
(1510592741.878418) can0 217#004000007F020000
(1510592741.879823) can0 219#00807E007F020000
(1510592741.880445) can0 21B#00C07F0082020000
(1510592741.880692) can0 37B#0000000000000000
(1510592741.890545) can0 34B#0000000000000000
(1510592741.900547) can0 35B#0000000000000000
(1510592741.910541) can0 32B#0000000000000000
(1510592741.915120) can0 45C#0000093E00000000
(1510592741.915247) can0 10C#1700
(1510592741.915398) can0 549#17FF
(1510592741.915531) can0 547#17FF
(1510592741.915661) can0 54B#17FF
(1510592741.920544) can0 33B#0000000000000000
(1510592741.933557) can0 42C#0060000020000000
(1510592741.933800) can0 43C#0060000020000000
(1510592741.934048) can0 44C#0060000020000000
(1510592741.968558) can0 207#0000C0FF68011400
(1510592741.968782) can0 227#EB027B100600ECD1
(1510592741.969023) can0 237#4641001700000000
(1510592741.969256) can0 247#667D890300002600
(1510592741.969958) can0 209#0000000068011400
(1510592741.970193) can0 229#FF020D101400ECD1
(1510592741.970433) can0 239#4541001700000000
(1510592741.970675) can0 20B#0000C0FF68011400
(1510592741.970906) can0 22B#380318111E00ECD1
(1510592741.971146) can0 23B#4541001700000000
(1510592741.971382) can0 249#667D890300002600
(1510592741.971617) can0 24B#667D890300002600
(1510592741.971864) can0 719#14000000F7FF0000
(1510592741.972110) can0 71B#1300000000000000
(1510592741.978401) can0 217#004000007F020000
(1510592741.979785) can0 219#00807E007F020000
(1510592741.980426) can0 21B#00C07F0082020000
(1510592742.015126) can0 45C#0000093E00000000
(1510592742.033558) can0 42C#0060000020000000
(1510592742.033801) can0 43C#0060000020000000
(1510592742.034049) can0 44C#0060000020000000
(1510592742.068532) can0 207#0000C0FF68011400
(1510592742.068763) can0 227#FB0280100B00ECD1
(1510592742.069004) can0 237#4641001700000000
(1510592742.069237) can0 247#667D890300002600
(1510592742.069479) can0 717#1600000000003D39
(1510592742.069928) can0 209#0000C0FF68011400
(1510592742.070162) can0 229#FA020D101100ECD1
(1510592742.070402) can0 239#4541001700000000
(1510592742.070647) can0 20B#0000000068011400
(1510592742.070877) can0 22B#450324110E00ECD1
(1510592742.071117) can0 23B#4541001700000000
(1510592742.071352) can0 249#667D890300002600
(1510592742.071588) can0 24B#667D890300002600
(1510592742.071838) can0 71B#1400000007000000
(1510592742.078360) can0 217#004000007F020000
(1510592742.079776) can0 219#00807E007F020000
(1510592742.080385) can0 21B#00C07F0082020000
(1510592742.115158) can0 45C#0000093E00000000
(1510592742.115235) can0 10C#1800
(1510592742.115406) can0 549#18FF
(1510592742.115548) can0 547#18FF
(1510592742.115662) can0 54B#18FF
(1510592742.133570) can0 42C#0060000020000000
(1510592742.133805) can0 43C#0060000020000000
(1510592742.134052) can0 44C#0060000020000000
(1510592742.168526) can0 207#0000C0FF68011400
(1510592742.168757) can0 227#FF0282100300ECD1
(1510592742.168997) can0 237#4641001700000000
(1510592742.169231) can0 247#667D890300002600
(1510592742.169473) can0 717#1700003001001001
(1510592742.169912) can0 209#0000000068011400
(1510592742.170145) can0 229#0A030B100D00ECD1
(1510592742.170385) can0 239#4541001700000000
(1510592742.170631) can0 20B#0000000068011400
(1510592742.170860) can0 22B#540323110E00ECD1
(1510592742.171100) can0 23B#4541001700000000
(1510592742.171335) can0 249#667D890300002600
(1510592742.171571) can0 24B#667D890300002600
(1510592742.171813) can0 719#1600000000007539
(1510592742.178353) can0 217#004000007F020000
(1510592742.179736) can0 219#00807E007F020000
(1510592742.180387) can0 21B#00C07F0082020000
(1510592742.215131) can0 45C#0000093E00000000
(1510592742.233564) can0 42C#0060000020000000
(1510592742.233807) can0 43C#0060000020000000
(1510592742.234055) can0 44C#0060000020000000
(1510592742.268488) can0 207#0000C0FF68011400
(1510592742.268716) can0 227#0D0388100A00ECD1
(1510592742.268956) can0 237#4641001700000000
(1510592742.269190) can0 247#667D890300002600
(1510592742.269433) can0 717#1800660600000000
(1510592742.269917) can0 209#0000000068011400
(1510592742.270146) can0 229#150311101300ECD1
(1510592742.270387) can0 239#4541001700000000
(1510592742.270629) can0 20B#0000C0FF68011400
(1510592742.270855) can0 22B#580323110F00ECD1
(1510592742.271094) can0 23B#4541001700000000
(1510592742.271330) can0 249#667D890300002600
(1510592742.271567) can0 24B#667D890300002600
(1510592742.271807) can0 719#1700036001004001
(1510592742.272047) can0 71B#1600000000003D39
(1510592742.278313) can0 217#004000007F020000
(1510592742.279743) can0 219#00807E007F020000
(1510592742.280367) can0 21B#00C07F0082020000
(1510592742.315135) can0 45C#0000093E00000000
(1510592742.315259) can0 10C#1900
(1510592742.315406) can0 547#19FF
(1510592742.315540) can0 549#19FF
(1510592742.315672) can0 54B#19FF
(1510592742.333573) can0 42C#0060000020000000
(1510592742.333810) can0 43C#0060000020000000
(1510592742.334057) can0 44C#0060000020000000
(1510592742.368488) can0 207#0000C0FF68011400
(1510592742.368719) can0 227#190383100400ECD1
(1510592742.368960) can0 237#4641001700000000
(1510592742.369194) can0 247#667D890300002600
(1510592742.369440) can0 717#1900000000000000
(1510592742.369874) can0 209#0000000068011400
(1510592742.370106) can0 229#1E0317101000ECD1
(1510592742.370347) can0 239#4541001700000000
(1510592742.370588) can0 20B#0000C0FF68011400
(1510592742.370820) can0 22B#62031F110600ECD1
(1510592742.371061) can0 23B#4541001700000000
(1510592742.371297) can0 249#667D890300002600
(1510592742.371533) can0 24B#667D890300002600
(1510592742.371779) can0 719#1800660600000000
(1510592742.372017) can0 71B#1700036001007001
(1510592742.378314) can0 217#004000007F020000
(1510592742.379718) can0 219#00807E007F020000
(1510592742.380328) can0 21B#00C07F0082020000
(1510592742.415142) can0 45C#0000093E00000000
(1510592742.433569) can0 42C#0060000020000000
(1510592742.433812) can0 43C#0060000020000000
(1510592742.434060) can0 44C#0060000020000000
(1510592742.468456) can0 207#0000000068011400
(1510592742.468685) can0 227#1E0386100B00ECD1
(1510592742.468926) can0 237#4641001700000000
(1510592742.469159) can0 247#667D890300002600
(1510592742.469400) can0 717#01000000CC0C6000
(1510592742.469846) can0 209#0000C0FF68011400
(1510592742.470076) can0 229#270312100A00ECD1
(1510592742.470315) can0 239#4541001700000000
(1510592742.470561) can0 20B#0000000068011400
(1510592742.470790) can0 22B#69031D110800ECD1
(1510592742.471030) can0 23B#4541001700000000
(1510592742.471265) can0 249#667D890300002600
(1510592742.471502) can0 24B#667D890300002600
(1510592742.471747) can0 719#1900000000000000
(1510592742.471992) can0 71B#1800660600000000
(1510592742.478288) can0 217#004000007F020000
(1510592742.479664) can0 219#00807E007F020000
(1510592742.480317) can0 21B#00C07F0082020000
(1510592742.515131) can0 45C#0000093E00000000
(1510592742.515254) can0 10C#1A00
(1510592742.515402) can0 547#1AFF
(1510592742.515534) can0 549#1AFF
(1510592742.515672) can0 54B#1AFF
(1510592742.533578) can0 42C#0060000020000000
(1510592742.533816) can0 43C#0060000020000000
(1510592742.534065) can0 44C#0060000020000000
(1510592742.568437) can0 207#0000C0FF68011400
(1510592742.568669) can0 227#290380100700ECD1
(1510592742.568909) can0 237#4641001700000000
(1510592742.569142) can0 247#667D890300002600
(1510592742.569388) can0 717#0200000000000000
(1510592742.569848) can0 209#0000000068011400
(1510592742.570079) can0 229#2A0310101D00ECD1
(1510592742.570319) can0 239#4541001700000000
(1510592742.570561) can0 20B#0000C0FF68011400
(1510592742.570788) can0 22B#72031A110E00ECD1
(1510592742.571027) can0 23B#4541001700000000
(1510592742.571262) can0 249#667D890300002600
(1510592742.571499) can0 24B#667D890300002600
(1510592742.571741) can0 719#01000000CC0C6000
(1510592742.571988) can0 71B#1900000000000000
(1510592742.578247) can0 217#004000007F020000
(1510592742.579673) can0 219#00807E007F020000
(1510592742.580281) can0 21B#00C07F0082020000
(1510592742.615166) can0 45C#0000093E00000000
(1510592742.633576) can0 42C#0060000020000000
(1510592742.633817) can0 43C#0060000020000000
(1510592742.634064) can0 44C#0060000020000000
(1510592742.668342) can0 367#0000000000000000
(1510592742.668587) can0 207#0000000068011400
(1510592742.668825) can0 227#2A037C100900ECD1
(1510592742.669062) can0 237#4641001700000000
(1510592742.669297) can0 247#667D890300002600
(1510592742.669808) can0 209#0000000068011400
(1510592742.670038) can0 229#2F030E101500ECD1
(1510592742.670279) can0 239#4541001700000000
(1510592742.670520) can0 20B#0000C0FF68011400
(1510592742.670748) can0 22B#770318111900ECD1
(1510592742.670989) can0 23B#4541001700000000
(1510592742.671225) can0 249#667D890300002600
(1510592742.671461) can0 24B#667D890300002600
(1510592742.671708) can0 719#0200000000000000
(1510592742.671949) can0 71B#01000000CC0C6000
(1510592742.678250) can0 217#004000007F020000
(1510592742.678496) can0 377#0000000000000000
(1510592742.679632) can0 219#00807E007F020000
(1510592742.680286) can0 21B#00C07F0082020000
(1510592742.688337) can0 347#0000000000000000
(1510592742.698332) can0 357#0000000000000000
(1510592742.708330) can0 327#0000000000000000
(1510592742.715133) can0 45C#0000093E00000000
(1510592742.715263) can0 10C#1B00
(1510592742.715421) can0 547#1BFF
(1510592742.715542) can0 549#1BFF
(1510592742.715677) can0 54B#1BFF
(1510592742.718332) can0 337#0000000000000000
(1510592742.733576) can0 42C#0060000020000000
(1510592742.733820) can0 43C#0060000020000000
(1510592742.734068) can0 44C#0060000020000000
(1510592742.768387) can0 207#0000C0FF68011400
(1510592742.768615) can0 227#340373100500ECD1
(1510592742.768855) can0 237#4641001700000000
(1510592742.769089) can0 247#667D890300002600
(1510592742.769331) can0 717#040000000D090400
(1510592742.769719) can0 369#0000000000000000
(1510592742.769967) can0 209#0000000068011400
(1510592742.770197) can0 229#35030A101700ECD1
(1510592742.770443) can0 20B#0000000068011400
(1510592742.770676) can0 22B#850316110400ECD1
(1510592742.770915) can0 239#4541001700000000
(1510592742.771156) can0 23B#4541001700000000
(1510592742.771391) can0 249#667D890300002600
(1510592742.771627) can0 24B#667D890300002600
(1510592742.771875) can0 71B#0200000000000000
(1510592742.778199) can0 217#004000007F020000
(1510592742.779635) can0 219#00807E007F020000
(1510592742.779884) can0 379#0000000000000000
(1510592742.780272) can0 21B#00C07F0082020000
(1510592742.789719) can0 349#0000000000000000
(1510592742.799715) can0 359#0000000000000000
(1510592742.809713) can0 329#0000000000000000
(1510592742.815136) can0 45C#0000093E00000000
(1510592742.819708) can0 339#0000000000000000
(1510592742.833579) can0 42C#0060000020000000
(1510592742.833823) can0 43C#0060000020000000
(1510592742.834071) can0 44C#0060000020000000
(1510592742.868374) can0 207#0000C0FF68011400
(1510592742.868604) can0 227#410378100700ECD1
(1510592742.868844) can0 237#4641001700000000
(1510592742.869078) can0 247#667D890300002600
(1510592742.869325) can0 717#0500000000000000
(1510592742.869772) can0 209#0000000068011400
(1510592742.870006) can0 229#3E030C100D00ECD1
(1510592742.870247) can0 239#4541001700000000
(1510592742.870483) can0 249#667D890300002600
(1510592742.870725) can0 20B#0000C0FF68011400
(1510592742.870953) can0 22B#870317110800ECD1
(1510592742.871193) can0 23B#4541001700000000
(1510592742.871429) can0 24B#667D890300002600
(1510592742.871677) can0 36B#0000000000000000
(1510592742.871918) can0 719#040000000D090300
(1510592742.878199) can0 217#004000007F020000
(1510592742.879609) can0 219#00807E007F020000
(1510592742.880223) can0 21B#00C07F0082020000
(1510592742.880470) can0 37B#0000000000000000
(1510592742.890324) can0 34B#0000000000000000
(1510592742.900321) can0 35B#0000000000000000
(1510592742.910341) can0 32B#0000000000000000
(1510592742.915140) can0 45C#0000093E00000000
(1510592742.915272) can0 10C#1C00
(1510592742.915422) can0 54B#1CFF
(1510592742.915547) can0 547#1CFF
(1510592742.915688) can0 549#1CFF
(1510592742.920333) can0 33B#0000000000000000
(1510592742.933583) can0 42C#0060000020000000
(1510592742.933827) can0 43C#0060000020000000
(1510592742.934074) can0 44C#0060000020000000
(1510592742.968336) can0 207#0000C0FF68011400
(1510592742.968565) can0 227#4A0378101000ECD1
(1510592742.968806) can0 237#4641001700000000
(1510592742.969039) can0 247#667D890300002600
(1510592742.969275) can0 717#06007D3999010040
(1510592742.969744) can0 209#0000C0FF68011400
(1510592742.969976) can0 229#470306100C00ECD1
(1510592742.970216) can0 239#4541001700000000
(1510592742.970458) can0 20B#0000C0FF68011400
(1510592742.970683) can0 22B#940315110E00ECD1
(1510592742.970924) can0 23B#4541001700000000
(1510592742.971160) can0 249#667D890300002600
(1510592742.971396) can0 24B#667D890300002600
(1510592742.971642) can0 719#0500000000000000
(1510592742.971884) can0 71B#040000000D090200
(1510592742.978181) can0 217#004000007F020000
(1510592742.979572) can0 219#00807E007F020000
(1510592742.980226) can0 21B#00C07F0082020000
(1510592743.015146) can0 45C#0000093E00000000
(1510592743.033586) can0 42C#0060000020000000
(1510592743.033830) can0 43C#0060000020000000
(1510592743.034077) can0 44C#0060000020000000
(1510592743.068368) can0 207#0000000068011400
(1510592743.068565) can0 227#520378100A00ECD1
(1510592743.068795) can0 237#4641001700000000
(1510592743.069030) can0 247#667D890300002600
(1510592743.069275) can0 717#0700000002260000
(1510592743.069755) can0 209#0000000068011400
(1510592743.069985) can0 229#53030A100F00ECD1
(1510592743.070222) can0 239#4541001700000000
(1510592743.070470) can0 20B#0000000068011400
(1510592743.070697) can0 22B#94030D110C00ECD1
(1510592743.070938) can0 23B#4541001700000000
(1510592743.071174) can0 249#667D890300002600
(1510592743.071410) can0 24B#667D890300002600
(1510592743.071645) can0 719#0600813999010040
(1510592743.071892) can0 71B#0500000000000000
(1510592743.078152) can0 217#004000007F020000
(1510592743.079583) can0 219#00807E007F020000
(1510592743.080189) can0 21B#00C07F0082020000
(1510592743.115181) can0 45C#0000093E00000000
(1510592743.115264) can0 10C#1D00
(1510592743.115425) can0 547#1DFF
(1510592743.115553) can0 549#1DFF
(1510592743.115696) can0 54B#1DFF
(1510592743.133594) can0 42C#0060000020000000
(1510592743.133832) can0 43C#0060000020000000
(1510592743.134079) can0 44C#0060000020000000
(1510592743.168340) can0 207#0000000068011400
(1510592743.168562) can0 227#530373100800ECD1
(1510592743.168803) can0 237#4641001700000000
(1510592743.169036) can0 247#667D890300002600
(1510592743.169278) can0 717#0800000075390000
(1510592743.169707) can0 209#0000C0FF68011400
(1510592743.169941) can0 229#500305101D00ECD1
(1510592743.170181) can0 239#4541001700000000
(1510592743.170422) can0 20B#0000C0FF68011400
(1510592743.170652) can0 22B#9D030A111000ECD1
(1510592743.170893) can0 23B#4541001700000000
(1510592743.171128) can0 249#667D890300002600
(1510592743.171365) can0 24B#667D890300002600
(1510592743.171606) can0 719#0700000002260000
(1510592743.171843) can0 71B#06003D3999010040
(1510592743.178137) can0 217#004000007F020000
(1510592743.179527) can0 219#00807E007F020000
(1510592743.180182) can0 21B#00C07F0082020000
(1510592743.215151) can0 45C#0000093E00000000
(1510592743.233592) can0 42C#0060000020000000
(1510592743.233834) can0 43C#0060000020000000
(1510592743.234082) can0 44C#0060000020000000
(1510592743.268275) can0 207#0000C0FF68011400
(1510592743.268496) can0 227#61037B100500ECD1
(1510592743.268736) can0 237#4641001700000000
(1510592743.268969) can0 247#667D890300002600
(1510592743.269210) can0 717#09007D3900000000
(1510592743.269687) can0 209#0000C0FF68011400
(1510592743.269916) can0 229#590301101900ECD1
(1510592743.270156) can0 239#4541001700000000
(1510592743.270403) can0 20B#0000000068011400
(1510592743.270633) can0 22B#A40308110700ECD1
(1510592743.270873) can0 23B#4541001700000000
(1510592743.271108) can0 249#667D890300002600
(1510592743.271344) can0 24B#667D890300002600
(1510592743.271586) can0 719#0800000081390000
(1510592743.271831) can0 71B#0700000002260000
(1510592743.278086) can0 217#004000007F020000
(1510592743.279528) can0 219#00807E007F020000
(1510592743.280166) can0 21B#00C07F0082020000
(1510592743.315151) can0 45C#0000093E00000000
(1510592743.315278) can0 10C#1E00
(1510592743.315424) can0 549#1EFF
(1510592743.315553) can0 547#1EFF
(1510592743.315690) can0 54B#1EFF
(1510592743.333597) can0 42C#0060000020000000
(1510592743.333837) can0 43C#0060000020000000
(1510592743.334084) can0 44C#0060000020000000
(1510592743.368263) can0 207#0000C0FF68011400
(1510592743.368492) can0 227#690381100E00ECD1
(1510592743.368733) can0 237#4641001700000000
(1510592743.368966) can0 247#667D890300002600
(1510592743.369213) can0 717#0A00000000000000
(1510592743.369709) can0 209#0000000068011400
(1510592743.369939) can0 229#6D0312102000ECD1
(1510592743.370179) can0 239#4541001700000000
(1510592743.370425) can0 20B#0000000068011400
(1510592743.370652) can0 22B#AB0311110700ECD1
(1510592743.370893) can0 23B#4541001700000000
(1510592743.371129) can0 249#667D890300002600
(1510592743.371364) can0 24B#667D890300002600
(1510592743.371605) can0 719#0900313900000000
(1510592743.371848) can0 71B#080000007D390000
(1510592743.378089) can0 217#004000007F020000
(1510592743.379507) can0 219#00807E007F020000
(1510592743.380117) can0 21B#00C07F0082020000
(1510592743.415158) can0 45C#0000093E00000000
(1510592743.433595) can0 42C#0060000020000000
(1510592743.433838) can0 43C#0060000020000000
(1510592743.434087) can0 44C#0060000020000000
(1510592743.468276) can0 207#0000000068011400
(1510592743.468510) can0 227#6E037F100B00ECD1
(1510592743.468738) can0 237#4641001700000000
(1510592743.468974) can0 247#667D890300002600
(1510592743.469220) can0 717#0B00000000000000
(1510592743.469655) can0 209#0000000068011400
(1510592743.469886) can0 229#680303101400ECD1
(1510592743.470127) can0 239#4541001700000000
(1510592743.470372) can0 20B#0000000068011400
(1510592743.470602) can0 22B#B60308110A00ECD1
(1510592743.470843) can0 23B#4541001700000000
(1510592743.471079) can0 249#667D890300002600
(1510592743.471314) can0 24B#667D890300002600
(1510592743.471560) can0 719#0A00000000000000
(1510592743.471800) can0 71B#0900753900000000
(1510592743.478075) can0 217#004000007F020000
(1510592743.479469) can0 219#00807E007F020000
(1510592743.480124) can0 21B#00C07F0082020000
(1510592743.515158) can0 45C#0000093E00000000
(1510592743.515285) can0 10C#1F00
(1510592743.515438) can0 547#1FFF
(1510592743.515571) can0 549#1FFF
(1510592743.515708) can0 54B#1FFF
(1510592743.533603) can0 42C#0060000020000000
(1510592743.533843) can0 43C#0060000020000000
(1510592743.534092) can0 44C#0060000020000000
(1510592743.568209) can0 207#0000C0FF68011400
(1510592743.568438) can0 227#720384100800ECD1
(1510592743.568679) can0 237#4641001700000000
(1510592743.568912) can0 247#667D890300002600
(1510592743.569154) can0 717#0C01000000060100
(1510592743.569649) can0 209#0000000068011400
(1510592743.569876) can0 229#760315100E00ECD1
(1510592743.570117) can0 239#4541001700000000
(1510592743.570362) can0 20B#0000000068011400
(1510592743.570590) can0 22B#BA0309111000ECD1
(1510592743.570831) can0 23B#4541001700000000
(1510592743.571066) can0 249#667D890300002600
(1510592743.571302) can0 24B#667D890300002600
(1510592743.571549) can0 719#0B00000000000000
(1510592743.571795) can0 71B#0A00000000000000
(1510592743.578029) can0 217#004000007F020000
(1510592743.579470) can0 219#00807E007F020000
(1510592743.580082) can0 21B#00C07F0082020000
(1510592743.615184) can0 45C#0000093E00000000
(1510592743.633601) can0 42C#0060000020000000
(1510592743.633845) can0 43C#0060000020000000
(1510592743.634091) can0 44C#0060000020000000
(1510592743.668117) can0 367#0000000000000000
(1510592743.668352) can0 207#0000C0FF68011400
(1510592743.668582) can0 227#860386100900ECD1
(1510592743.668823) can0 237#4641001700000000
(1510592743.669056) can0 247#667D890300002600
(1510592743.669296) can0 717#0E00000266170000
(1510592743.669607) can0 209#0000000068011400
(1510592743.669839) can0 229#840316101200ECD1
(1510592743.670080) can0 239#4541001700000000
(1510592743.670320) can0 20B#0000C0FF68011400
(1510592743.670556) can0 22B#C6030C110600ECD1
(1510592743.670795) can0 23B#4541001700000000
(1510592743.671031) can0 249#667D890300002600
(1510592743.671267) can0 24B#667D890300002600
(1510592743.671509) can0 719#0C01000000060100
(1510592743.671756) can0 71B#0B00000000000000
(1510592743.678025) can0 217#004000007F020000
(1510592743.678271) can0 377#0000000000000000
(1510592743.679447) can0 219#00807E007F020000
(1510592743.680071) can0 21B#00C07F0082020000
(1510592743.688116) can0 347#0000000000000000
(1510592743.698105) can0 357#0000000000000000
(1510592743.708107) can0 327#0000000000000000
(1510592743.715162) can0 45C#0000093E00000000
(1510592743.715291) can0 10C#2000
(1510592743.715446) can0 547#20FF
(1510592743.715570) can0 549#20FF
(1510592743.715706) can0 54B#20FF
(1510592743.718105) can0 337#0000000000000000
(1510592743.733603) can0 42C#0060000020000000
(1510592743.733847) can0 43C#0060000020000000
(1510592743.734095) can0 44C#0060000020000000
(1510592743.768182) can0 207#0000C0FF68011400
(1510592743.768403) can0 227#8A0386100C00ECD1
(1510592743.768644) can0 237#4641001700000000
(1510592743.768877) can0 247#667D890300002600
(1510592743.769115) can0 717#0F00C701AC0E0000
(1510592743.769506) can0 369#0000000000000000
(1510592743.769754) can0 209#0000000068011400
(1510592743.769981) can0 229#870319101A00ECD1
(1510592743.770229) can0 20B#0000000068011400
(1510592743.770458) can0 22B#D30319110200ECD1
(1510592743.770698) can0 239#4541001700000000
(1510592743.770938) can0 23B#4541001700000000
(1510592743.771178) can0 249#667D890300002600
(1510592743.771411) can0 24B#667D890300002600
(1510592743.771648) can0 719#0E00000266170000
(1510592743.771891) can0 71B#0C01000000060100
(1510592743.778007) can0 217#004000007F020000
(1510592743.779401) can0 219#00807E0080020000
(1510592743.779651) can0 379#0000000000000000
(1510592743.780060) can0 21B#00C07F0082020000
(1510592743.789505) can0 349#0000000000000000
(1510592743.799531) can0 359#0000000000000000
(1510592743.809519) can0 329#0000000000000000
(1510592743.815164) can0 45C#0000093E00000000
(1510592743.819514) can0 339#0000000000000000
(1510592743.833605) can0 42C#0060000020000000
(1510592743.833849) can0 43C#0060000020000000
(1510592743.834097) can0 44C#0060000020000000
(1510592743.868166) can0 207#0000000068011400
(1510592743.868392) can0 227#9B0385100900ECD1
(1510592743.868632) can0 237#4641001700000000
(1510592743.868866) can0 247#667D890300002600
(1510592743.869110) can0 717#1003000015000000
(1510592743.869584) can0 209#0000C0FF68011400
(1510592743.869812) can0 229#8C0317101100ECD1
(1510592743.870053) can0 239#4541001700000000
(1510592743.870288) can0 249#667D890300002600
(1510592743.870530) can0 20B#0000C0FF68011400
(1510592743.870760) can0 22B#DF0316110900ECD1
(1510592743.871001) can0 23B#4541001700000000
(1510592743.871237) can0 24B#667D890300002600
(1510592743.871485) can0 36B#0000000000000000
(1510592743.871724) can0 719#0F00C701F30E0000
(1510592743.871963) can0 71B#0E00000266170000
(1510592743.877961) can0 217#004000007F020000
(1510592743.879407) can0 219#00807E0080020000
(1510592743.880024) can0 21B#00C07F0082020000
(1510592743.880272) can0 37B#0000000000000000
(1510592743.890143) can0 34B#0000000000000000
(1510592743.900142) can0 35B#0000000000000000
(1510592743.910134) can0 32B#0000000000000000
(1510592743.915166) can0 45C#0000093E00000000
(1510592743.915291) can0 10C#2100
(1510592743.915440) can0 54B#21FF
(1510592743.915570) can0 547#21FF
(1510592743.915705) can0 549#21FF
(1510592743.920122) can0 33B#0000000000000000
(1510592743.933609) can0 42C#0060000020000000
(1510592743.933852) can0 43C#0060000020000000
(1510592743.934100) can0 44C#0060000020000000
(1510592743.968163) can0 207#0000000068011400
(1510592743.968389) can0 227#980388100800ECD1
(1510592743.968630) can0 237#4641001700000000
(1510592743.968862) can0 247#667D890300002600
(1510592743.969101) can0 717#11008EF300000000
(1510592743.969543) can0 209#0000C0FF68011400
(1510592743.969775) can0 229#9A0314100F00ECD1
(1510592743.970016) can0 239#4541001700000000
(1510592743.970261) can0 20B#0000000068011400
(1510592743.970496) can0 22B#E00310110200ECD1
(1510592743.970737) can0 23B#4541001700000000
(1510592743.970971) can0 249#667D890300002600
(1510592743.971208) can0 24B#667D890300002600
(1510592743.971447) can0 719#10F40F0016000000
(1510592743.971682) can0 71B#0F00C701E70B0000
(1510592743.977967) can0 217#004000007F020000
(1510592743.979358) can0 219#00807E0080020000
(1510592743.980027) can0 21B#00C07F0082020000
(1510592744.015173) can0 45C#0000093E00000000
(1510592744.033613) can0 42C#0060000020000000
(1510592744.033856) can0 43C#0060000020000000
(1510592744.034105) can0 44C#0060000020000000
(1510592744.068106) can0 207#0000000068011400
(1510592744.068328) can0 227#A2037A100D00ECD1
(1510592744.068569) can0 237#4641001700000000
(1510592744.068802) can0 247#667D890300002600
(1510592744.069038) can0 717#1240290027001700
(1510592744.069539) can0 209#0000C0FF68011400
(1510592744.069768) can0 229#9C0310101200ECD1
(1510592744.070008) can0 239#4541001700000000
(1510592744.070254) can0 20B#0000000068011400
(1510592744.070484) can0 22B#F00315110100ECD1
(1510592744.070725) can0 23B#4541001700000000
(1510592744.070960) can0 249#667D890300002600
(1510592744.071196) can0 24B#667D890300002600
(1510592744.071437) can0 719#1100E8F300000000
(1510592744.071679) can0 71B#10FF0F0018000000
(1510592744.077912) can0 217#004000007F020000
(1510592744.079354) can0 219#00807E0080020000
(1510592744.079990) can0 21B#00C07F0082020000
(1510592744.115208) can0 45C#0000093E00000000
(1510592744.115288) can0 10C#2200
(1510592744.115447) can0 549#22FF
(1510592744.115575) can0 547#22FF
(1510592744.115710) can0 54B#22FF
(1510592744.133626) can0 42C#0060000020000000
(1510592744.133859) can0 43C#0060000020000000
(1510592744.134106) can0 44C#0060000020000000
(1510592744.168111) can0 207#0000000068011400
(1510592744.168336) can0 227#A8037E100400ECD1
(1510592744.168576) can0 237#4641001700000000
(1510592744.168809) can0 247#667D890300002600
(1510592744.169058) can0 717#1300000000000000
(1510592744.169499) can0 209#0000C0FF68011400
(1510592744.169725) can0 229#A50311101700ECD1
(1510592744.169966) can0 239#4541001700000000
(1510592744.170208) can0 20B#0000C0FF68011400
(1510592744.170438) can0 22B#F40310110100ECD1
(1510592744.170678) can0 23B#4541001700000000
(1510592744.170914) can0 249#667D890300002600
(1510592744.171151) can0 24B#667D890300002600
(1510592744.171386) can0 719#1240290027001500
(1510592744.171634) can0 71B#110027F300000000
(1510592744.177918) can0 217#004000007F020000
(1510592744.179339) can0 219#00807E0080020000
(1510592744.179964) can0 21B#00C07F0082020000
(1510592744.215178) can0 45C#0000093E00000000
(1510592744.233618) can0 42C#0060000020000000
(1510592744.233860) can0 43C#0060000020000000
(1510592744.234109) can0 44C#0060000020000000
(1510592744.268069) can0 207#0000000068011400
(1510592744.268295) can0 227#B0037E100600ECD1
(1510592744.268535) can0 237#4641001700000000
(1510592744.268770) can0 247#667D890300002600
(1510592744.269016) can0 717#1400000006000000
(1510592744.269488) can0 209#0000C0FF68011400
(1510592744.269714) can0 229#AB0311100A00ECD1
(1510592744.269955) can0 239#4541001700000000
(1510592744.270196) can0 20B#0000C0FF68011400
(1510592744.270426) can0 22B#FE030E110500ECD1
(1510592744.270667) can0 23B#4541001700000000
(1510592744.270902) can0 249#667D890300002600
(1510592744.271139) can0 24B#667D890300002600
(1510592744.271384) can0 719#1300000000000000
(1510592744.271621) can0 71B#123F290027001700
(1510592744.277900) can0 217#004000007F020000
(1510592744.279298) can0 219#00807E0080020000
(1510592744.279961) can0 21B#00C07F0082020000
(1510592744.315180) can0 45C#0000093E00000000
(1510592744.315302) can0 10C#2300
(1510592744.315451) can0 547#23FF
(1510592744.315581) can0 549#23FF
(1510592744.315721) can0 54B#23FF
(1510592744.333626) can0 42C#0060000020000000
(1510592744.333865) can0 43C#0060000020000000
(1510592744.334112) can0 44C#0060000020000000
(1510592744.368053) can0 207#0000000068011400
(1510592744.368279) can0 227#B4037B100600ECD1
(1510592744.368519) can0 237#4641001700000000
(1510592744.368753) can0 247#667D890300002600
(1510592744.369478) can0 209#0000C0FF68011400
(1510592744.369711) can0 229#AF0308100800ECD1
(1510592744.369951) can0 239#4541001700000000
(1510592744.370193) can0 20B#0000C0FF68011400
(1510592744.370427) can0 22B#010411110900ECD1
(1510592744.370668) can0 23B#4541001700000000
(1510592744.370904) can0 249#667D890300002600
(1510592744.371139) can0 24B#667D890300002600
(1510592744.371385) can0 719#1400000006000000
(1510592744.371633) can0 71B#1300000000000000
(1510592744.377852) can0 217#004000007F020000
(1510592744.379299) can0 219#00807E0080020000
(1510592744.379919) can0 21B#00C07F0082020000
(1510592744.415185) can0 45C#0000093E00000000
(1510592744.433623) can0 42C#0060000020000000
(1510592744.433867) can0 43C#0060000020000000
(1510592744.434114) can0 44C#0060000020000000
(1510592744.468046) can0 207#0000C0FF68011400
(1510592744.468271) can0 227#C1037B100500ECD1
(1510592744.468510) can0 237#4641001700000000
(1510592744.468744) can0 247#667D890300002600
(1510592744.468989) can0 717#1600000000007139
(1510592744.469437) can0 209#0000C0FF68011400
(1510592744.469664) can0 229#B4030A100600ECD1
(1510592744.469905) can0 239#4541001700000000
(1510592744.470150) can0 20B#0000000068011400
(1510592744.470384) can0 22B#09040C110B00ECD1
(1510592744.470625) can0 23B#4541001700000000
(1510592744.470861) can0 249#667D890300002600
(1510592744.471097) can0 24B#667D890300002600
(1510592744.471342) can0 71B#14000000FCFF0000
(1510592744.477851) can0 217#004000007F020000
(1510592744.479251) can0 219#00807E0080020000
(1510592744.479913) can0 21B#00C07F0082020000
(1510592744.515188) can0 45C#0000093E00000000
(1510592744.515312) can0 10C#2400
(1510592744.515463) can0 549#24FF
(1510592744.515587) can0 547#24FF
(1510592744.515727) can0 54B#24FF
(1510592744.533630) can0 42C#0060000020000000
(1510592744.533870) can0 43C#0060000020000000
(1510592744.534117) can0 44C#0060000020000000
(1510592744.568005) can0 207#0000C0FF68011400
(1510592744.568228) can0 227#C9037B100800ECD1
(1510592744.568468) can0 237#4641001700000000
(1510592744.568701) can0 247#667D890300002600
(1510592744.568944) can0 717#1700003001001001
(1510592744.569436) can0 209#0000000068011400
(1510592744.569668) can0 229#BA0307100700ECD1
(1510592744.569909) can0 239#4541001700000000
(1510592744.570154) can0 20B#0000000068011400
(1510592744.570384) can0 22B#0E040A110B00ECD1
(1510592744.570625) can0 23B#4541001700000000
(1510592744.570860) can0 249#667D890300002600
(1510592744.571096) can0 24B#667D890300002600
(1510592744.571337) can0 719#1600000000007139
(1510592744.577814) can0 217#004000007F020000
(1510592744.579259) can0 219#00807E0080020000
(1510592744.579899) can0 21B#00C07F0082020000
(1510592744.615222) can0 45C#0000093E00000000
(1510592744.633629) can0 42C#0060000020000000
(1510592744.633872) can0 43C#0060000020000000
(1510592744.634120) can0 44C#0060000020000000
(1510592744.667892) can0 367#0000000000000000
(1510592744.668126) can0 207#0000C0FF68011400
(1510592744.668357) can0 227#CA0376100400ECD1
(1510592744.668598) can0 237#4641001700000000
(1510592744.668831) can0 247#667D890300002600
(1510592744.669073) can0 717#1800660600000000
(1510592744.669402) can0 209#0000C0FF68011400
(1510592744.669637) can0 229#C60304101200ECD1
(1510592744.669876) can0 239#4541001700000000
(1510592744.670118) can0 20B#0000C0FF68011400
(1510592744.670350) can0 22B#1D0409110700ECD1
(1510592744.670590) can0 23B#4541001700000000
(1510592744.670827) can0 249#667D890300002600
(1510592744.671062) can0 24B#667D890300002600
(1510592744.671302) can0 719#1700036001005001
(1510592744.671547) can0 71B#1600000000006539
(1510592744.677812) can0 217#004000007F020000
(1510592744.678058) can0 377#0000000000000000
(1510592744.679244) can0 219#00807E0080020000
(1510592744.679862) can0 21B#00C07F0082020000
(1510592744.687898) can0 347#0000000000000000
(1510592744.697898) can0 357#0000000000000000
(1510592744.707896) can0 327#0000000000000000
(1510592744.715189) can0 45C#0000093E00000000
(1510592744.715315) can0 10C#2500
(1510592744.715473) can0 547#25FF
(1510592744.715599) can0 549#25FF
(1510592744.715730) can0 54B#25FF
(1510592744.717890) can0 337#0000000000000000
(1510592744.733632) can0 42C#0060000020000000
(1510592744.733875) can0 43C#0060000020000000
(1510592744.734123) can0 44C#0060000020000000
(1510592744.767957) can0 207#0000000068011400
(1510592744.768187) can0 227#DF037E100E00ECD1
(1510592744.768427) can0 237#4641001700000000
(1510592744.768660) can0 247#667D890300002600
(1510592744.768906) can0 717#1900000000000000
(1510592744.769310) can0 369#0000000000000000
(1510592744.769556) can0 209#0000000068011400
(1510592744.769787) can0 229#C803FC0F1600ECD1
(1510592744.770027) can0 239#4541001700000000
(1510592744.770268) can0 20B#0000C0FF68011400
(1510592744.770501) can0 22B#25040B110800ECD1
(1510592744.770741) can0 23B#4541001700000000
(1510592744.770977) can0 249#667D890300002600
(1510592744.771213) can0 24B#667D890300002600
(1510592744.771459) can0 719#1800660600000000
(1510592744.771698) can0 71B#1700026001007001
(1510592744.777791) can0 217#004000007F020000
(1510592744.779194) can0 219#00807E0080020000
(1510592744.779442) can0 379#0000000000000000
(1510592744.779855) can0 21B#00C07F0082020000
(1510592744.789311) can0 349#0000000000000000
(1510592744.799302) can0 359#0000000000000000
(1510592744.809306) can0 329#0000000000000000
(1510592744.815192) can0 45C#0000093E00000000
(1510592744.819305) can0 339#0000000000000000
(1510592744.833634) can0 42C#0060000020000000
(1510592744.833878) can0 43C#0060000020000000
(1510592744.834125) can0 44C#0060000020000000
(1510592744.867926) can0 207#0000000068011400
(1510592744.868152) can0 227#DC037A100A00ECD1
(1510592744.868397) can0 237#4641001700000000
(1510592744.868628) can0 247#667D890300002600
(1510592744.868868) can0 717#01000000CC0C6000
(1510592744.869379) can0 209#0000000068011400
(1510592744.869609) can0 229#D50303100B00ECD1
(1510592744.869849) can0 239#4541001700000000
(1510592744.870086) can0 249#667D890300002600
(1510592744.870331) can0 20B#0000000068011400
(1510592744.870565) can0 22B#28040F110A00ECD1
(1510592744.870806) can0 23B#4541001700000000
(1510592744.871041) can0 24B#667D890300002600
(1510592744.871290) can0 36B#0000000000000000
(1510592744.871535) can0 719#1900000000000000
(1510592744.871780) can0 71B#1800660600000000
(1510592744.877746) can0 217#004000007F020000
(1510592744.879195) can0 219#00807E0080020000
(1510592744.879813) can0 21B#00C07F0082020000
(1510592744.880061) can0 37B#0000000000000000
(1510592744.889931) can0 34B#0000000000000000
(1510592744.899933) can0 35B#0000000000000000
(1510592744.909924) can0 32B#0000000000000000
(1510592744.915194) can0 45C#0000093E00000000
(1510592744.915323) can0 10C#2600
(1510592744.915470) can0 549#26FF
(1510592744.915599) can0 547#26FF
(1510592744.915729) can0 54B#26FF
(1510592744.919923) can0 33B#0000000000000000
(1510592744.933636) can0 42C#0060000020000000
(1510592744.933880) can0 43C#0060000020000000
(1510592744.934129) can0 44C#0060000020000000
(1510592744.967936) can0 207#0000000068011400
(1510592744.968163) can0 227#E80380100600ECD1
(1510592744.968403) can0 237#4641001700000000
(1510592744.968637) can0 247#667D890300002600
(1510592744.968883) can0 717#0200000000000000
(1510592744.969344) can0 209#0000C0FF68011400
(1510592744.969578) can0 229#DC0304101000ECD1
(1510592744.969819) can0 239#4541001700000000
(1510592744.970060) can0 20B#0000C0FF68011400
(1510592744.970292) can0 22B#30040C111100ECD1
(1510592744.970532) can0 23B#4541001700000000
(1510592744.970768) can0 249#667D890300002600
(1510592744.971004) can0 24B#667D890300002600
(1510592744.971246) can0 719#01000000CC0C6000
(1510592744.971493) can0 71B#1900000000000000
(1510592744.977746) can0 217#004000007F020000
(1510592744.979156) can0 219#00807E0080020000
(1510592744.979815) can0 21B#00C07F0082020000
(1510592745.015200) can0 45C#0000093E00000000
(1510592745.033640) can0 42C#0060000020000000
(1510592745.033884) can0 43C#0060000020000000
(1510592745.034131) can0 44C#0060000020000000
(1510592745.067888) can0 207#0000C0FF68011400
(1510592745.068111) can0 227#EB0382100A00ECD1
(1510592745.068352) can0 237#4641001700000000
(1510592745.068584) can0 247#667D890300002600
(1510592745.069320) can0 209#0000C0FF68011400
(1510592745.069554) can0 229#E40300101300ECD1
(1510592745.069794) can0 239#4541001700000000
(1510592745.070039) can0 20B#0000000068011400
(1510592745.070272) can0 22B#330406111100ECD1
(1510592745.070513) can0 23B#4541001700000000
(1510592745.070747) can0 249#667D890300002600
(1510592745.070983) can0 24B#667D890300002600
(1510592745.071231) can0 719#0200000000000000
(1510592745.071472) can0 71B#01000000CC0C6000
(1510592745.077700) can0 217#004000007F020000
(1510592745.079147) can0 219#00807E0080020000
(1510592745.079806) can0 21B#00C07F0082020000
(1510592745.115233) can0 45C#0000093E00000000
(1510592745.115313) can0 10C#2700
(1510592745.115485) can0 54B#27FF
(1510592745.115610) can0 547#27FF
(1510592745.115743) can0 549#27FF
(1510592745.133646) can0 42C#0060000020000000
(1510592745.133885) can0 43C#0060000020000000
(1510592745.134133) can0 44C#0060000020000000
(1510592745.167869) can0 207#0000000068011400
(1510592745.168096) can0 227#F10381100800ECD1
(1510592745.168335) can0 237#4641001700000000
(1510592745.168569) can0 247#667D890300002600
(1510592745.168808) can0 717#040000000D090100
(1510592745.169304) can0 209#0000000068011400
(1510592745.169539) can0 229#ED0300100800ECD1
(1510592745.169779) can0 239#4541001700000000
(1510592745.170021) can0 20B#0000C0FF68011400
(1510592745.170256) can0 22B#3E040E110300ECD1
(1510592745.170495) can0 23B#4541001700000000
(1510592745.170731) can0 249#667D890300002600
(1510592745.170967) can0 24B#667D890300002600
(1510592745.171215) can0 71B#0200000000000000
(1510592745.177690) can0 217#004000007F020000
(1510592745.179135) can0 219#00807E0080020000
(1510592745.179757) can0 21B#00C07F0082020000
(1510592745.215205) can0 45C#0000093E00000000
(1510592745.233647) can0 42C#0060000020000000
(1510592745.233889) can0 43C#0060000020000000
(1510592745.234137) can0 44C#0060000020000000
(1510592745.267879) can0 207#0000000068011400
(1510592745.268104) can0 227#F90388100300ECD1
(1510592745.268344) can0 237#4641001700000000
(1510592745.268578) can0 247#667D890300002600
(1510592745.268824) can0 717#0500000000000000
(1510592745.269280) can0 209#0000000068011400
(1510592745.269514) can0 229#EE03FE0F0D00ECD1
(1510592745.269755) can0 239#4541001700000000
(1510592745.269997) can0 20B#0000C0FF68011400
(1510592745.270228) can0 22B#52041E110D00ECD1
(1510592745.270469) can0 23B#4541001700000000
(1510592745.270704) can0 249#667D890300002600
(1510592745.270941) can0 24B#667D890300002600
(1510592745.271181) can0 719#040000000D090300
(1510592745.277676) can0 217#004000007F020000
(1510592745.279096) can0 219#00807E0080020000
(1510592745.279759) can0 21B#00C07F0082020000
(1510592745.315208) can0 45C#0000093E00000000
(1510592745.315333) can0 10C#2800
(1510592745.315484) can0 549#28FF
(1510592745.315610) can0 547#28FF
(1510592745.315744) can0 54B#28FF
(1510592745.333652) can0 42C#0060000020000000
(1510592745.333891) can0 43C#0060000020000000
(1510592745.334138) can0 44C#0060000020000000
(1510592745.367835) can0 207#0000C0FF68011400
(1510592745.368064) can0 227#060489100900ECD1
(1510592745.368303) can0 237#4641001700000000
(1510592745.368537) can0 247#667D890300002600
(1510592745.368771) can0 717#06008D3999010040
(1510592745.369278) can0 209#0000C0FF68011400
(1510592745.369510) can0 229#FA0303100500ECD1
(1510592745.369750) can0 239#4541001700000000
(1510592745.369995) can0 20B#0000000068011400
(1510592745.370226) can0 22B#510414110D00ECD1
(1510592745.370466) can0 23B#4541001700000000
(1510592745.370702) can0 249#667D890300002600
(1510592745.370937) can0 24B#667D890300002600
(1510592745.371183) can0 719#0500000000000000
(1510592745.371426) can0 71B#040000000D090400
(1510592745.377640) can0 217#004000007F020000
(1510592745.379094) can0 219#00807E0080020000
(1510592745.379737) can0 21B#00C07F0082020000
(1510592745.415214) can0 45C#0000093E00000000
(1510592745.433649) can0 42C#0060000020000000
(1510592745.433893) can0 43C#0060000020000000
(1510592745.434141) can0 44C#0060000020000000
(1510592745.467831) can0 207#0000C0FF68011400
(1510592745.468055) can0 227#03048A100600ECD1
(1510592745.468295) can0 237#4641001700000000
(1510592745.468529) can0 247#667D890300002600
(1510592745.468775) can0 717#0700000002260000
(1510592745.469244) can0 209#0000000068011400
(1510592745.469478) can0 229#060407100D00ECD1
(1510592745.469716) can0 239#4541001700000000
(1510592745.469962) can0 20B#0000000068011400
(1510592745.470192) can0 22B#5A041B110C00ECD1
(1510592745.470433) can0 23B#4541001700000000
(1510592745.470668) can0 249#667D890300002600
(1510592745.470904) can0 24B#667D890300002600
(1510592745.471136) can0 719#0600853999010040
(1510592745.471383) can0 71B#0500000000000000
(1510592745.477638) can0 217#004000007F020000
(1510592745.479080) can0 219#00807E0080020000
(1510592745.479701) can0 21B#00C07F0082020000
(1510592745.515214) can0 45C#0000093E00000000
(1510592745.515338) can0 10C#2900
(1510592745.515489) can0 54B#29FF
(1510592745.515614) can0 547#29FF
(1510592745.515749) can0 549#29FF
(1510592745.533658) can0 42C#0060000020000000
(1510592745.533896) can0 43C#0060000020000000
(1510592745.534144) can0 44C#0060000020000000
(1510592745.567773) can0 207#0000C0FF68011400
(1510592745.567999) can0 227#0D0488100500ECD1
(1510592745.568239) can0 237#4641001700000000
(1510592745.568473) can0 247#667D890300002600
(1510592745.568717) can0 717#08000000D1380000
(1510592745.569214) can0 209#0000C0FF68011400
(1510592745.569449) can0 229#0B040C101000ECD1
(1510592745.569690) can0 239#4541001700000000
(1510592745.569931) can0 20B#0000C0FF68011400
(1510592745.570160) can0 22B#5E0411110A00ECD1
(1510592745.570400) can0 23B#4541001700000000
(1510592745.570636) can0 249#667D890300002600
(1510592745.570873) can0 24B#667D890300002600
(1510592745.571114) can0 719#0700000002260000
(1510592745.571348) can0 71B#0600613999010040
(1510592745.577615) can0 217#004000007F020000
(1510592745.579030) can0 219#00807E0080020000
(1510592745.579701) can0 21B#00C07F0082020000
(1510592745.615249) can0 45C#0000093E00000000
(1510592745.633657) can0 42C#0060000020000000
(1510592745.633900) can0 43C#0060000020000000
(1510592745.634148) can0 44C#0060000020000000
(1510592745.667677) can0 367#0000000000000000
(1510592745.667913) can0 207#0000C0FF68011400
(1510592745.668148) can0 227#140490100400ECD1
(1510592745.668389) can0 237#4641001700000000
(1510592745.668622) can0 247#667D890300002600
(1510592745.668862) can0 717#09004D3900000000
(1510592745.669223) can0 209#0000000068011400
(1510592745.669457) can0 229#0E0407100D00ECD1
(1510592745.669697) can0 239#4541001700000000
(1510592745.669943) can0 20B#0000000068011400
(1510592745.670175) can0 22B#61041A110800ECD1
(1510592745.670415) can0 23B#4541001700000000
(1510592745.670651) can0 249#667D890300002600
(1510592745.670888) can0 24B#667D890300002600
(1510592745.671129) can0 719#0800000085390000
(1510592745.671374) can0 71B#0700000002260000
(1510592745.677571) can0 217#004000007F020000
(1510592745.677813) can0 377#0000000000000000
(1510592745.679029) can0 219#00807E0080020000
(1510592745.679647) can0 21B#00C07F0082020000
(1510592745.687667) can0 347#0000000000000000
(1510592745.697670) can0 357#0000000000000000
(1510592745.707685) can0 327#0000000000000000
(1510592745.715216) can0 45C#0000093E00000000
(1510592745.715344) can0 10C#2A00
(1510592745.715501) can0 549#2AFF
(1510592745.715622) can0 547#2AFF
(1510592745.715749) can0 54B#2AFF
(1510592745.717676) can0 337#0000000000000000
(1510592745.733658) can0 42C#0060000020000000
(1510592745.733901) can0 43C#0060000020000000
(1510592745.734149) can0 44C#0060000020000000
(1510592745.767756) can0 207#0000C0FF68011400
(1510592745.767980) can0 227#120486100800ECD1
(1510592745.768220) can0 237#4641001700000000
(1510592745.768454) can0 247#667D890300002600
(1510592745.768700) can0 717#0A00000000000000
(1510592745.769110) can0 369#0000000000000000
(1510592745.769358) can0 209#0000000068011400
(1510592745.769594) can0 229#1C040E101600ECD1
(1510592745.769841) can0 20B#0000000068011400
(1510592745.770070) can0 22B#68041B110500ECD1
(1510592745.770311) can0 239#4541001700000000
(1510592745.770551) can0 23B#4541001700000000
(1510592745.770787) can0 249#667D890300002600
(1510592745.771022) can0 24B#667D890300002600
(1510592745.771261) can0 719#09006D3900000000
(1510592745.771503) can0 71B#080000005D390000
(1510592745.777567) can0 217#004000007F020000
(1510592745.778994) can0 219#00807E0080020000
(1510592745.779244) can0 379#0000000000000000
(1510592745.779656) can0 21B#00C07F0082020000
(1510592745.789114) can0 349#0000000000000000
(1510592745.799106) can0 359#0000000000000000
(1510592745.809109) can0 329#0000000000000000
(1510592745.815220) can0 45C#0000093E00000000
(1510592745.819105) can0 339#0000000000000000
(1510592745.833661) can0 42C#0060000020000000
(1510592745.833905) can0 43C#0060000020000000
(1510592745.834153) can0 44C#0060000020000000
(1510592745.867713) can0 207#0000000068011400
(1510592745.867946) can0 227#1D0488101100ECD1
(1510592745.868186) can0 237#4641001700000000
(1510592745.868420) can0 247#667D890300002600
(1510592745.868665) can0 717#0B00000000000000
(1510592745.869175) can0 209#0000C0FF68011400
(1510592745.869412) can0 229#1B0411101000ECD1
(1510592745.869652) can0 239#4541001700000000
(1510592745.869888) can0 249#667D890300002600
(1510592745.870129) can0 20B#0000C0FF68011400
(1510592745.870360) can0 22B#6D0413110800ECD1
(1510592745.870600) can0 23B#4541001700000000
(1510592745.870836) can0 24B#667D890300002600
(1510592745.871084) can0 36B#0000000000000000
(1510592745.871331) can0 719#0A00000000000000
(1510592745.871569) can0 71B#0900953900000000
(1510592745.877523) can0 217#004000007F020000
(1510592745.878995) can0 219#00807E0080020000
(1510592745.879634) can0 21B#00C07F0083020000
(1510592745.879885) can0 37B#0000000000000000
(1510592745.889735) can0 34B#0000000000000000
(1510592745.899736) can0 35B#0000000000000000
(1510592745.909726) can0 32B#0000000000000000
(1510592745.915221) can0 45C#0000093E00000000
(1510592745.915348) can0 10C#2B00
(1510592745.915500) can0 54B#2BFF
(1510592745.915631) can0 547#2BFF
(1510592745.915768) can0 549#2BFF
(1510592745.919726) can0 33B#0000000000000000
(1510592745.933664) can0 42C#0060000020000000
(1510592745.933908) can0 43C#0060000020000000
(1510592745.934155) can0 44C#0060000020000000
(1510592745.967707) can0 207#0000000068011400
(1510592745.967942) can0 227#200481100C00ECD1
(1510592745.968182) can0 237#4641001700000000
(1510592745.968416) can0 247#667D890300002600
(1510592745.968658) can0 717#0C01000000060100
(1510592745.969138) can0 209#0000000068011400
(1510592745.969371) can0 229#1C040E100D00ECD1
(1510592745.969611) can0 239#4541001700000000
(1510592745.969853) can0 20B#0000C0FF68011400
(1510592745.970082) can0 22B#700413110A00ECD1
(1510592745.970323) can0 23B#4541001700000000
(1510592745.970559) can0 249#667D890300002600
(1510592745.970794) can0 24B#667D890300002600
(1510592745.971041) can0 719#0B00000000000000
(1510592745.971287) can0 71B#0A00000000000000
(1510592745.977527) can0 217#004000007F020000
(1510592745.978971) can0 219#00807E0080020000
(1510592745.979593) can0 21B#00C07F0083020000
(1510592746.015226) can0 45C#0000093E00000000
(1510592746.033667) can0 42C#0060000020000000
(1510592746.033910) can0 43C#0060000020000000
(1510592746.034159) can0 44C#0060000020000000
(1510592746.067663) can0 207#0000C0FF68011400
(1510592746.067889) can0 227#210484100800ECD1
(1510592746.068129) can0 237#4641001700000000
(1510592746.068362) can0 247#667D890300002600
(1510592746.068605) can0 717#0E000002C6200000
(1510592746.069115) can0 209#0000000068011400
(1510592746.069346) can0 229#1D0406101200ECD1
(1510592746.069587) can0 239#4541001700000000
(1510592746.069833) can0 20B#0000000068011400
(1510592746.070065) can0 22B#77040F110700ECD1
(1510592746.070305) can0 23B#4541001700000000
(1510592746.070541) can0 249#667D890300002600
(1510592746.070778) can0 24B#667D890300002600
(1510592746.071019) can0 719#0C01000000060100
(1510592746.071266) can0 71B#0B00000000000000
(1510592746.077511) can0 217#004000007F020000
(1510592746.078971) can0 219#00807E0080020000
(1510592746.079601) can0 21B#00C07F0083020000
(1510592746.115361) can0 45C#0000093E00000000
(1510592746.115474) can0 10C#2C00
(1510592746.115559) can0 547#2CFF
(1510592746.115619) can0 549#2CFF
(1510592746.115783) can0 54B#2CFF
(1510592746.133718) can0 42C#0060000020000000
(1510592746.133908) can0 43C#0060000020000000
(1510592746.134155) can0 44C#0060000020000000
(1510592746.167673) can0 207#0000000068011400
(1510592746.167884) can0 227#230482100800ECD1
(1510592746.168120) can0 237#4641001700000000
(1510592746.168353) can0 247#667D890300002600
(1510592746.168590) can0 717#0F00C701200C0000
(1510592746.169114) can0 209#0000C0FF68011400
(1510592746.169350) can0 229#290404100F00ECD1
(1510592746.169589) can0 239#4541001700000000
(1510592746.169833) can0 20B#0000000068011400
(1510592746.170060) can0 22B#770415110900ECD1
(1510592746.170303) can0 23B#4541001700000000
(1510592746.170537) can0 249#667D890300002600
(1510592746.170773) can0 24B#667D890300002600
(1510592746.171012) can0 719#0E000002C6200000
(1510592746.171257) can0 71B#0C01000000060100
(1510592746.177463) can0 217#004000007F020000
(1510592746.178934) can0 219#00807E0080020000
(1510592746.179553) can0 21B#00C07F0083020000
(1510592746.215273) can0 45C#0000093E00000000
(1510592746.233706) can0 42C#0060000020000000
(1510592746.233914) can0 43C#0060000020000000
(1510592746.234159) can0 44C#0060000020000000
(1510592746.267680) can0 207#0000C0FF68011400
(1510592746.267883) can0 227#2C047B101500ECD1
(1510592746.268118) can0 237#4641001700000000
(1510592746.268350) can0 247#667D890300002600
(1510592746.268593) can0 717#1003000015000000
(1510592746.269069) can0 209#0000C0FF68011400
(1510592746.269303) can0 229#320408101400ECD1
(1510592746.269546) can0 239#4541001700000000
(1510592746.269786) can0 20B#0000C0FF68011400
(1510592746.270026) can0 22B#7D0410110300ECD1
(1510592746.270266) can0 23B#4541001700000000
(1510592746.270500) can0 249#667D890300002600
(1510592746.270735) can0 24B#667D890300002600
(1510592746.270971) can0 719#0F00C7011D0C0000
(1510592746.271216) can0 71B#0E000002C6200000
(1510592746.277463) can0 217#004000007F020000
(1510592746.278886) can0 219#00807E0080020000
(1510592746.279556) can0 21B#00C07F0083020000
(1510592746.315236) can0 45C#0000093E00000000
(1510592746.315367) can0 10C#2D00
(1510592746.315513) can0 547#2DFF
(1510592746.315651) can0 549#2DFF
(1510592746.315775) can0 54B#2DFF
(1510592746.333682) can0 42C#0060000020000000
(1510592746.333918) can0 43C#0060000020000000
(1510592746.334165) can0 44C#0060000020000000
(1510592746.367614) can0 207#0000000068011400
(1510592746.367843) can0 227#31047B100E00ECD1
(1510592746.368082) can0 237#4641001700000000
(1510592746.368315) can0 247#667D890300002600
(1510592746.368552) can0 717#110098F300000000
(1510592746.369066) can0 209#0000C0FF68011400
(1510592746.369301) can0 229#300408100900ECD1
(1510592746.369542) can0 239#4541001700000000
(1510592746.369783) can0 20B#0000C0FF68011400
(1510592746.370014) can0 22B#7C040A111500ECD1
(1510592746.370256) can0 23B#4541001700000000
(1510592746.370491) can0 249#667D890300002600
(1510592746.370727) can0 24B#667D890300002600
(1510592746.370967) can0 719#10F40F0016000000
(1510592746.371205) can0 71B#0F00C701B40E0000
(1510592746.377412) can0 217#004000007F020000
(1510592746.378887) can0 219#00807E0080020000
(1510592746.379531) can0 21B#0000000083020000
(1510592746.415240) can0 45C#0000093E00000000
