(1510592786.187834) can0 5E7#003F070100000001
(1510592786.188026) can0 5EB#003F070100000001
(1510592786.188262) can0 5E9#003F070100000001
(1510592786.310422) can0 217#00807F006F020000
(1510592786.310657) can0 21B#00807F0070020000
(1510592786.310901) can0 219#00807F006F020000
(1510592786.370806) can0 45C#0000093E00000000
(1510592786.378988) can0 42C#0060000020010000
(1510592786.379228) can0 43C#0060000020010000
(1510592786.379473) can0 44C#0060000020010000
(1510592786.389028) can0 42C#0060000020000000
(1510592786.389272) can0 43C#0060000020000000
(1510592786.389516) can0 44C#0060000020000000
(1510592786.470611) can0 45C#0000093E00000000
(1510592786.470739) can0 10C#0100
(1510592786.489040) can0 42C#0060000020000000
(1510592786.489279) can0 43C#0060000020000000
(1510592786.489528) can0 44C#0060000020000000
(1510592786.512288) can0 5E7#003F070100000001
(1510592786.570614) can0 45C#0000093E00000000
(1510592786.589041) can0 42C#0060000020000000
(1510592786.589282) can0 43C#0060000020000000
(1510592786.589530) can0 44C#0060000020000000
(1510592786.613576) can0 5E9#003F070100000001
(1510592786.634937) can0 217#000000006F020000
(1510592786.670624) can0 45C#0000093E00000000
(1510592786.670749) can0 10C#0200
(1510592786.670901) can0 547#02FF
(1510592786.689046) can0 42C#0060000020000000
(1510592786.689285) can0 43C#0060000020000000
(1510592786.689533) can0 44C#0060000020000000
(1510592786.713982) can0 5EB#003F070100000001
(1510592786.725111) can0 207#0051000D00040400
(1510592786.725338) can0 227#A4039510E000ECD1
(1510592786.725578) can0 237#4641001700000000
(1510592786.725820) can0 247#007D890300002600
(1510592786.726066) can0 717#0200000000000000
(1510592786.734932) can0 217#000000007F020000
(1510592786.736501) can0 219#004000006F020000
(1510592786.770629) can0 45C#0000093E00000000
(1510592786.789048) can0 42C#0060000020000000
(1510592786.789289) can0 43C#0060000020000000
(1510592786.789536) can0 44C#0060000020000000
(1510592786.825083) can0 207#0064C00C68071400
(1510592786.825304) can0 227#B2039A10D700ECD1
(1510592786.825543) can0 237#4641001700000000
(1510592786.825781) can0 247#667D890300002600
(1510592786.826659) can0 209#0051801800040400
(1510592786.826890) can0 229#A80311103301ECD1
(1510592786.827127) can0 239#4541001700000000
(1510592786.827408) can0 249#007D890300002600
(1510592786.827613) can0 719#0200000000000000
(1510592786.834904) can0 217#000000007F020000
(1510592786.836479) can0 219#0000000080020000
(1510592786.836723) can0 21B#0040000070020000
(1510592786.870618) can0 45C#0000093E00000000
(1510592786.870744) can0 10C#0300
(1510592786.870894) can0 547#03FF
(1510592786.871032) can0 549#03FF
(1510592786.871165) can0 54B#03FF
(1510592786.889047) can0 42C#0060000020000000
(1510592786.889290) can0 43C#0060000020000000
(1510592786.889538) can0 44C#0060000020000000
(1510592786.925079) can0 207#006DC00C68071400
(1510592786.925301) can0 227#BB039B10C400ECD1
(1510592786.925541) can0 237#4641001700000000
(1510592786.925775) can0 247#667D890300002600
(1510592786.926012) can0 717#040000000D09B204
(1510592786.926662) can0 209#0065801868071400
(1510592786.926908) can0 20B#0051801800040400
(1510592786.927142) can0 229#B10311102701ECD1
(1510592786.927403) can0 22B#C90301110801ECD1
(1510592786.927614) can0 239#4541001700000000
(1510592786.927853) can0 23B#4541001700000000
(1510592786.928090) can0 249#667D890300002600
(1510592786.928327) can0 24B#007D890300002600
(1510592786.928576) can0 71B#0200000000000000
(1510592786.934896) can0 217#000000007F020000
(1510592786.936481) can0 219#0000000080020000
(1510592786.936725) can0 21B#0040000082020000
(1510592786.970623) can0 45C#0000093E00000000
(1510592786.989053) can0 42C#0060000020000000
(1510592786.989293) can0 43C#0060000020000000
(1510592786.989541) can0 44C#0060000020000000
(1510592787.025034) can0 207#0071800C68071400
(1510592787.025257) can0 227#B7038D10B000ECD1
(1510592787.025497) can0 237#4541001700000000
(1510592787.025732) can0 247#667D890300002600
(1510592787.025976) can0 717#0500000000000000
(1510592787.026606) can0 209#006E401868071400
(1510592787.026844) can0 20B#0065801868071400
(1510592787.027093) can0 229#BA0314100201ECD1
(1510592787.027307) can0 22B#D5030F11F800ECD1
(1510592787.027548) can0 239#4541001700000000
(1510592787.027786) can0 23B#4541001700000000
(1510592787.028024) can0 249#667D890300002600
(1510592787.028258) can0 24B#667D890300002600
(1510592787.028499) can0 719#040000000D09A404
(1510592787.034882) can0 217#000000007F020000
(1510592787.036427) can0 219#00C07F0080020000
(1510592787.036670) can0 21B#0040000082020000
(1510592787.070624) can0 45C#0000093E00000000
(1510592787.070750) can0 10C#0400
(1510592787.070906) can0 547#04FF
(1510592787.071032) can0 549#04FF
(1510592787.071164) can0 54B#04FF
(1510592787.089058) can0 42C#0060000020000000
(1510592787.089296) can0 43C#0060000020000000
(1510592787.089544) can0 44C#0060000020000000
(1510592787.125038) can0 207#0074800C68051400
(1510592787.125234) can0 227#C50390109900ECD1
(1510592787.125475) can0 237#4541001700000000
(1510592787.125709) can0 247#667D890300002600
(1510592787.125950) can0 717#0600000099010040
(1510592787.126604) can0 209#0072401868071400
(1510592787.126841) can0 20B#006E401868071400
(1510592787.127069) can0 229#B7030F10D400ECD1
(1510592787.127299) can0 22B#DE031111EC00ECD1
(1510592787.127540) can0 239#4541001700000000
(1510592787.127779) can0 23B#4541001700000000
(1510592787.128015) can0 249#667D890300002600
(1510592787.128251) can0 24B#667D890300002600
(1510592787.128497) can0 719#0500000000000000
(1510592787.128738) can0 71B#040000000D097704
(1510592787.134826) can0 217#000000007F020000
(1510592787.136429) can0 219#00807F0080020000
(1510592787.136673) can0 21B#0040000082020000
(1510592787.170629) can0 45C#0000093E00000000
(1510592787.189055) can0 42C#0060000020000000
(1510592787.189299) can0 43C#0060000020000000
(1510592787.189546) can0 44C#0060000020000000
(1510592787.225015) can0 207#0075400C68051400
(1510592787.225240) can0 227#C90396108D00ECD1
(1510592787.225479) can0 237#4541001700000000
(1510592787.225712) can0 247#667D890300002600
(1510592787.225957) can0 717#0700000002260000
(1510592787.226580) can0 209#0075001868051400
(1510592787.226815) can0 20B#0072401868071400
(1510592787.227046) can0 229#C2030810C800ECD1
(1510592787.227273) can0 22B#E6030A11CF00ECD1
(1510592787.227515) can0 239#4541001700000000
(1510592787.227753) can0 23B#4541001700000000
(1510592787.227989) can0 249#667D890300002600
(1510592787.228225) can0 24B#667D890300002600
(1510592787.228465) can0 719#0600000099010040
(1510592787.228711) can0 71B#0500000000000000
(1510592787.234827) can0 217#004000007F020000
(1510592787.236409) can0 219#00807F0080020000
(1510592787.236651) can0 21B#0040000082020000
(1510592787.270629) can0 45C#0000093E00000000
(1510592787.270756) can0 10C#0500
(1510592787.270910) can0 54B#05FF
(1510592787.271041) can0 547#05FF
(1510592787.271181) can0 549#05FF
(1510592787.289055) can0 42C#0060000020000000
(1510592787.289301) can0 43C#0060000020000000
(1510592787.289548) can0 44C#0060000020000000
(1510592787.324979) can0 207#0076400C68051400
(1510592787.325204) can0 227#D40390108D00ECD1
(1510592787.325444) can0 237#4541001700000000
(1510592787.325678) can0 247#667D890300002600
(1510592787.325924) can0 717#0800000000000000
(1510592787.326552) can0 209#0076001868051400
(1510592787.326790) can0 20B#0074401868051400
(1510592787.327017) can0 229#C7030F10B100ECD1
(1510592787.327246) can0 22B#EB030C11C300ECD1
(1510592787.327486) can0 239#4541001700000000
(1510592787.327726) can0 23B#4541001700000000
(1510592787.327962) can0 249#667D890300002600
(1510592787.328198) can0 24B#667D890300002600
(1510592787.328440) can0 719#0700000002260000
(1510592787.328683) can0 71B#0600000099010040
(1510592787.334787) can0 217#004000007F020000
(1510592787.336376) can0 219#00807F0080020000
(1510592787.336611) can0 21B#0040000082020000
(1510592787.370637) can0 45C#0000093E00000000
(1510592787.389064) can0 42C#0060000020000000
(1510592787.389303) can0 43C#0060000020000000
(1510592787.389551) can0 44C#0060000020000000
(1510592787.424949) can0 207#0076000C68051400
(1510592787.425175) can0 227#DC038F107100ECD1
(1510592787.425416) can0 237#4541001700000000
(1510592787.425647) can0 247#667D890300002600
(1510592787.425896) can0 717#0900000000000000
(1510592787.426562) can0 209#0077C01768051400
(1510592787.426800) can0 20B#0076001868051400
(1510592787.427025) can0 229#C6030A10AB00ECD1
(1510592787.427257) can0 22B#EF0304119F00ECD1
(1510592787.427501) can0 239#4541001700000000
(1510592787.427737) can0 23B#4541001700000000
(1510592787.427973) can0 249#667D890300002600
(1510592787.428209) can0 24B#667D890300002600
(1510592787.428458) can0 719#0800000000000000
(1510592787.428703) can0 71B#0700000002260000
(1510592787.434776) can0 217#004000007F020000
(1510592787.436369) can0 219#00407F0080020000
(1510592787.436612) can0 21B#0040000082020000
(1510592787.470634) can0 45C#0000093E00000000
(1510592787.470759) can0 10C#0600
(1510592787.470915) can0 547#06FF
(1510592787.471043) can0 549#06FF
(1510592787.471178) can0 54B#06FF
(1510592787.489068) can0 42C#0060000020000000
(1510592787.489306) can0 43C#0060000020000000
(1510592787.489554) can0 44C#0060000020000000
(1510592787.524930) can0 207#0076C00B68051400
(1510592787.525151) can0 227#E30393107300ECD1
(1510592787.525392) can0 237#4541001700000000
(1510592787.525625) can0 247#667D890300002600
(1510592787.525871) can0 717#0A00000000000000
(1510592787.526516) can0 209#0077C01768051400
(1510592787.526751) can0 20B#0076401868051400
(1510592787.526980) can0 229#D50305109600ECD1
(1510592787.527212) can0 22B#FC0305119800ECD1
(1510592787.527457) can0 239#4541001700000000
(1510592787.527691) can0 23B#4541001700000000
(1510592787.527928) can0 249#667D890300002600
(1510592787.528163) can0 24B#667D890300002600
(1510592787.528409) can0 719#0900000000000000
(1510592787.528658) can0 71B#0800000000000000
(1510592787.534754) can0 217#004000007F020000
(1510592787.536348) can0 219#00407F0080020000
(1510592787.536591) can0 21B#0040000082020000
(1510592787.570641) can0 45C#0000093E00000000
(1510592787.589069) can0 42C#0060000020000000
(1510592787.589309) can0 43C#0060000020000000
(1510592787.589557) can0 44C#0060000020000000
(1510592787.624870) can0 367#0000000000000000
(1510592787.625077) can0 207#0076C00B68031400
(1510592787.625308) can0 227#DE038C106100ECD1
(1510592787.625546) can0 237#4541001700000000
(1510592787.625782) can0 247#667D890300002600
(1510592787.626026) can0 717#0B00000000000000
(1510592787.626494) can0 209#0077801768051400
(1510592787.626733) can0 20B#0077001868051400
(1510592787.626966) can0 229#D90306108300ECD1
(1510592787.627196) can0 22B#FE03FE108E00ECD1
(1510592787.627446) can0 239#4541001700000000
(1510592787.627675) can0 23B#4541001700000000
(1510592787.627911) can0 249#667D890300002600
(1510592787.628147) can0 24B#667D890300002600
(1510592787.628393) can0 719#0A00000000000000
(1510592787.628639) can0 71B#0900000000000000
(1510592787.634721) can0 217#004000007F020000
(1510592787.634968) can0 377#0000000000000000
(1510592787.636321) can0 219#00407F0080020000
(1510592787.636565) can0 21B#0040000082020000
(1510592787.644839) can0 347#0000000000000000
(1510592787.654830) can0 357#0000000000000000
(1510592787.664828) can0 327#0000000000000000
(1510592787.670638) can0 45C#0000093E00000000
(1510592787.670767) can0 10C#0700
(1510592787.670920) can0 547#07FF
(1510592787.671051) can0 549#07FF
(1510592787.671188) can0 54B#07FF
(1510592787.674813) can0 337#0000000000000000
(1510592787.689072) can0 42C#0060000020000000
(1510592787.689311) can0 43C#0060000020000000
(1510592787.689559) can0 44C#0060000020000000
(1510592787.724909) can0 207#0076C00B68031400
(1510592787.725133) can0 227#F40393105D00ECD1
(1510592787.725371) can0 237#4541001700000000
(1510592787.725604) can0 247#667D890300002600
(1510592787.725846) can0 717#0C00000000060100
(1510592787.726403) can0 369#0000000000000000
(1510592787.726645) can0 209#0077801768031400
(1510592787.726885) can0 20B#0077C01768051400
(1510592787.727117) can0 229#E30305108000ECD1
(1510592787.727376) can0 22B#0404FD107B00ECD1
(1510592787.727597) can0 239#4541001700000000
(1510592787.727835) can0 23B#4541001700000000
(1510592787.728071) can0 249#667D890300002600
(1510592787.728307) can0 24B#667D890300002600
(1510592787.728553) can0 719#0B00000000000000
(1510592787.728801) can0 71B#0A00000000000000
(1510592787.734727) can0 217#004000007F020000
(1510592787.736310) can0 219#00407F0080020000
(1510592787.736554) can0 21B#0040000082020000
(1510592787.736804) can0 379#0000000000000000
(1510592787.746401) can0 349#0000000000000000
(1510592787.756401) can0 359#0000000000000000
(1510592787.766397) can0 329#0000000000000000
(1510592787.770641) can0 45C#0000093E00000000
(1510592787.776391) can0 339#0000000000000000
(1510592787.789075) can0 42C#0060000020000000
(1510592787.789315) can0 43C#0060000020000000
(1510592787.789564) can0 44C#0060000020000000
(1510592787.824863) can0 207#0076800B68031400
(1510592787.825090) can0 227#EF0391105100ECD1
(1510592787.825344) can0 237#4541001700000000
(1510592787.825562) can0 247#667D890300002600
(1510592787.825807) can0 717#0E000002A6040000
(1510592787.826455) can0 209#0077801768031400
(1510592787.826683) can0 229#EE0309107200ECD1
(1510592787.826921) can0 20B#0077001868031400
(1510592787.827157) can0 22B#1204FF107E00ECD1
(1510592787.827406) can0 239#4541001700000000
(1510592787.827637) can0 23B#4541001700000000
(1510592787.827872) can0 249#667D890300002600
(1510592787.828108) can0 24B#667D890300002600
(1510592787.828357) can0 36B#0000000000000000
(1510592787.828601) can0 719#0C00000000060100
(1510592787.828847) can0 71B#0B00000000000000
(1510592787.834691) can0 217#004000007F020000
(1510592787.836262) can0 219#00007F0080020000
(1510592787.836507) can0 21B#0040000082020000
(1510592787.836754) can0 37B#0000000000000000
(1510592787.846549) can0 34B#0000000000000000
(1510592787.856551) can0 35B#0000000000000000
(1510592787.866545) can0 32B#0000000000000000
(1510592787.870644) can0 45C#0000093E00000000
(1510592787.870773) can0 10C#0800
(1510592787.870929) can0 549#08FF
(1510592787.871061) can0 547#08FF
(1510592787.871197) can0 54B#08FF
(1510592787.876528) can0 33B#0000000000000000
(1510592787.889078) can0 42C#0060000020000000
(1510592787.889317) can0 43C#0060000020000000
(1510592787.889565) can0 44C#0060000020000000
(1510592787.924838) can0 207#0076800B68031400
(1510592787.925064) can0 227#FB0390104B00ECD1
(1510592787.925305) can0 237#4541001700000000
(1510592787.925538) can0 247#667D890300002600
(1510592787.925772) can0 717#0F00C6010F0C0000
(1510592787.926449) can0 209#0077401768031400
(1510592787.926689) can0 20B#0077C01768031400
(1510592787.926919) can0 229#F40309105000ECD1
(1510592787.927153) can0 22B#1304FD107400ECD1
(1510592787.927400) can0 239#4541001700000000
(1510592787.927632) can0 23B#4541001700000000
(1510592787.927868) can0 249#667D890300002600
(1510592787.928105) can0 24B#667D890300002600
(1510592787.928345) can0 719#0E000002A6040000
(1510592787.928591) can0 71B#0C00000000060100
(1510592787.934650) can0 217#004000007F020000
(1510592787.936267) can0 219#00007F0080020000
(1510592787.936510) can0 21B#0040000082020000
(1510592787.970652) can0 45C#0000093E00000000
(1510592787.989081) can0 42C#0060000020000000
(1510592787.989321) can0 43C#0060000020000000
(1510592787.989568) can0 44C#0060000020000000
(1510592788.024840) can0 207#0076000B68031400
(1510592788.025068) can0 227#04049C103D00ECD1
(1510592788.025310) can0 237#4541001700000000
(1510592788.025540) can0 247#667D890300002600
(1510592788.025786) can0 717#1001000012000000
(1510592788.026416) can0 209#0077001768031400
(1510592788.026655) can0 20B#0077C01768031400
(1510592788.026884) can0 229#FF030E105300ECD1
(1510592788.027118) can0 22B#1A04FB105C00ECD1
(1510592788.027383) can0 239#4541001700000000
(1510592788.027598) can0 23B#4541001700000000
(1510592788.027836) can0 249#667D890300002600
(1510592788.028071) can0 24B#667D890300002600
(1510592788.028308) can0 719#0F00C601DF0E0000
(1510592788.028548) can0 71B#0E000002A6040000
(1510592788.034652) can0 217#004000007F020000
(1510592788.036247) can0 219#00007F0080020000
(1510592788.036490) can0 21B#0040000082020000
(1510592788.070651) can0 45C#0000093E00000000
(1510592788.070776) can0 10C#0900
(1510592788.070926) can0 547#09FF
(1510592788.071062) can0 549#09FF
(1510592788.071197) can0 54B#09FF
(1510592788.089162) can0 42C#0060000020000000
(1510592788.089343) can0 43C#0060000020000000
(1510592788.089590) can0 44C#0060000020000000
(1510592788.124866) can0 207#0076000B68031400
(1510592788.125036) can0 227#0D0497103F00ECD1
(1510592788.125272) can0 237#4541001700000000
(1510592788.125505) can0 247#667D890300002600
(1510592788.125745) can0 717#110082F300000000
(1510592788.126389) can0 209#0077001768031400
(1510592788.126626) can0 20B#0077C01768031400
(1510592788.126875) can0 229#03040A105100ECD1
(1510592788.127094) can0 22B#220405116000ECD1
(1510592788.127409) can0 239#4541001700000000
(1510592788.127577) can0 23B#4541001700000000
(1510592788.127810) can0 249#667D890300002600
(1510592788.128056) can0 24B#667D890300002600
(1510592788.128291) can0 719#10F60F0012000000
(1510592788.128534) can0 71B#0F00C601D30B0000
(1510592788.134640) can0 217#004000007F020000
(1510592788.136202) can0 219#00007F0080020000
(1510592788.136444) can0 21B#0040000082020000
(1510592788.170676) can0 45C#0000093E00000000
(1510592788.189136) can0 42C#0060000020000000
(1510592788.189327) can0 43C#0060000020000000
(1510592788.189583) can0 44C#0060000020000000
(1510592788.224834) can0 207#0076000B68011400
(1510592788.225024) can0 227#11049C103500ECD1
(1510592788.225268) can0 237#4541001700000000
(1510592788.225503) can0 247#667D890300002600
(1510592788.225743) can0 717#1240250027001600
(1510592788.226408) can0 209#0077001768031400
(1510592788.226671) can0 20B#0077801768031400
(1510592788.226878) can0 229#090409104600ECD1
(1510592788.227101) can0 22B#2D0406114C00ECD1
(1510592788.227385) can0 239#4541001700000000
(1510592788.227586) can0 23B#4541001700000000
(1510592788.227819) can0 249#667D890300002600
(1510592788.228052) can0 24B#667D890300002600
(1510592788.228317) can0 719#1100EDF300000000
(1510592788.228534) can0 71B#10FF0F0011000000
(1510592788.234614) can0 217#004000007F020000
(1510592788.236212) can0 219#00007F0080020000
(1510592788.236447) can0 21B#0040000082020000
(1510592788.270685) can0 45C#0000093E00000000
(1510592788.270764) can0 10C#0A00
(1510592788.270936) can0 547#0AFF
(1510592788.271066) can0 549#0AFF
(1510592788.271200) can0 54B#0AFF
(1510592788.289084) can0 42C#0060000020000000
(1510592788.289328) can0 43C#0060000020000000
(1510592788.289575) can0 44C#0060000020000000
(1510592788.324751) can0 207#0076C00A68011400
(1510592788.324981) can0 227#17049C103000ECD1
(1510592788.325221) can0 237#4541001700000000
(1510592788.325454) can0 247#667D890300002600
(1510592788.325703) can0 717#1300000000000000
(1510592788.326354) can0 209#0077C01668031400
(1510592788.326593) can0 20B#0077801768031400
(1510592788.326831) can0 229#1D040C103C00ECD1
(1510592788.327061) can0 22B#33040E114A00ECD1
(1510592788.327300) can0 239#4541001700000000
(1510592788.327542) can0 23B#4541001700000000
(1510592788.327777) can0 249#667D890300002600
(1510592788.328012) can0 24B#667D890300002600
(1510592788.328250) can0 719#123F270027001500
(1510592788.328493) can0 71B#110029F300000000
(1510592788.334587) can0 217#004000007F020000
(1510592788.336172) can0 219#00007F0080020000
(1510592788.336412) can0 21B#0040000082020000
(1510592788.370663) can0 45C#0000093E00000000
(1510592788.389090) can0 42C#0060000020000000
(1510592788.389330) can0 43C#0060000020000000
(1510592788.389578) can0 44C#0060000020000000
(1510592788.424735) can0 207#0076800A68011400
(1510592788.424968) can0 227#1B049C102F00ECD1
(1510592788.425202) can0 237#4541001700000000
(1510592788.425436) can0 247#667D890300002600
(1510592788.425719) can0 717#14000000C82A0000
(1510592788.426355) can0 209#0077C01668031400
(1510592788.426594) can0 20B#0077801768011400
(1510592788.426830) can0 229#19040C103400ECD1
(1510592788.427062) can0 22B#410409115100ECD1
(1510592788.427302) can0 239#4541001700000000
(1510592788.427543) can0 23B#4541001700000000
(1510592788.427778) can0 249#667D890300002600
(1510592788.428013) can0 24B#667D890300002600
(1510592788.428259) can0 719#1300000000000000
(1510592788.428494) can0 71B#123D290027001500
(1510592788.434548) can0 217#004000007F020000
(1510592788.436171) can0 219#00C07E0080020000
(1510592788.436414) can0 21B#0040000082020000
(1510592788.470665) can0 45C#0000093E00000000
(1510592788.470791) can0 10C#0B00
(1510592788.470940) can0 549#0BFF
(1510592788.471077) can0 547#0BFF
(1510592788.471213) can0 54B#0BFF
(1510592788.489095) can0 42C#0060000020000000
(1510592788.489333) can0 43C#0060000020000000
(1510592788.489581) can0 44C#0060000020000000
(1510592788.524744) can0 207#0076800A68011400
(1510592788.524970) can0 227#1D049B103100ECD1
(1510592788.525210) can0 237#4541001700000000
(1510592788.525444) can0 247#667D890300002600
(1510592788.526308) can0 209#0077801668011400
(1510592788.526548) can0 20B#0077401768011400
(1510592788.526782) can0 229#1C040A103100ECD1
(1510592788.527011) can0 22B#4B0413115100ECD1
(1510592788.527250) can0 239#4541001700000000
(1510592788.527496) can0 23B#4541001700000000
(1510592788.527726) can0 249#667D890300002600
(1510592788.527962) can0 24B#667D890300002600
(1510592788.528202) can0 719#14000000F22A0000
(1510592788.528449) can0 71B#1300000000000000
(1510592788.534543) can0 217#004000007F020000
(1510592788.536147) can0 219#00C07E0080020000
(1510592788.536391) can0 21B#0040000082020000
(1510592788.570666) can0 45C#0000093E00000000
(1510592788.589098) can0 42C#0060000020000000
(1510592788.589338) can0 43C#0060000020000000
(1510592788.589585) can0 44C#0060000020000000
(1510592788.624643) can0 367#0000000000000000
(1510592788.624861) can0 207#0076400A68011400
(1510592788.625081) can0 227#220496103500ECD1
(1510592788.625331) can0 237#4541001700000000
(1510592788.625555) can0 247#667D890300002600
(1510592788.625797) can0 717#160000000000718E
(1510592788.626283) can0 209#0077801668011400
(1510592788.626520) can0 20B#0077401768011400
(1510592788.626757) can0 229#22040E101D00ECD1
(1510592788.626983) can0 22B#52040B112A00ECD1
(1510592788.627226) can0 239#4541001700000000
(1510592788.627465) can0 23B#4541001700000000
(1510592788.627701) can0 249#667D890300002600
(1510592788.627941) can0 24B#667D890300002600
(1510592788.628182) can0 71B#14000000DD290000
(1510592788.634498) can0 217#004000007F020000
(1510592788.634744) can0 377#0000000000000000
(1510592788.636097) can0 219#00C07E0080020000
(1510592788.636340) can0 21B#0040000082020000
(1510592788.644616) can0 347#0000000000000000
(1510592788.654607) can0 357#0000000000000000
(1510592788.664605) can0 327#0000000000000000
(1510592788.670667) can0 45C#0000093E00000000
(1510592788.670795) can0 10C#0C00
(1510592788.670947) can0 549#0CFF
(1510592788.671084) can0 547#0CFF
(1510592788.671211) can0 54B#0CFF
(1510592788.674601) can0 337#0000000000000000
(1510592788.689101) can0 42C#0060000020000000
(1510592788.689340) can0 43C#0060000020000000
(1510592788.689588) can0 44C#0060000020000000
(1510592788.724688) can0 207#0076400A68011400
(1510592788.724914) can0 227#280497101A00ECD1
(1510592788.725155) can0 237#4541001700000000
(1510592788.725389) can0 247#667D890300002600
(1510592788.725630) can0 717#1700012001000001
(1510592788.726201) can0 369#0000000000000000
(1510592788.726439) can0 209#0077401668011400
(1510592788.726679) can0 20B#0077401768011400
(1510592788.726913) can0 229#2B0409101100ECD1
(1510592788.727142) can0 22B#51040E112D00ECD1
(1510592788.727414) can0 239#4541001700000000
(1510592788.727621) can0 23B#4541001700000000
(1510592788.727856) can0 249#667D890300002600
(1510592788.728093) can0 24B#667D890300002600
(1510592788.728333) can0 719#160000000000298E
(1510592788.734500) can0 217#004000007F020000
(1510592788.736103) can0 219#00C07E0080020000
(1510592788.736347) can0 21B#0040000082020000
(1510592788.736596) can0 379#0000000000000000
(1510592788.746201) can0 349#0000000000000000
(1510592788.756200) can0 359#0000000000000000
(1510592788.766198) can0 329#0000000000000000
(1510592788.770674) can0 45C#0000093E00000000
(1510592788.776191) can0 339#0000000000000000
(1510592788.789101) can0 42C#0060000020000000
(1510592788.789341) can0 43C#0060000020000000
(1510592788.789589) can0 44C#0060000020000000
(1510592788.824647) can0 207#0076000A68011400
(1510592788.824882) can0 227#230494101F00ECD1
(1510592788.825119) can0 237#4541001700000000
(1510592788.825350) can0 247#667D890300002600
(1510592788.825595) can0 717#1800660600000000
(1510592788.826246) can0 209#0077401668011400
(1510592788.826480) can0 229#2A0406102400ECD1
(1510592788.826721) can0 20B#0077401768011400
(1510592788.826951) can0 22B#5A0409111E00ECD1
(1510592788.827189) can0 239#4541001700000000
(1510592788.827451) can0 23B#4541001700000000
(1510592788.827667) can0 249#667D890300002600
(1510592788.827901) can0 24B#667D890300002600
(1510592788.828157) can0 36B#0000000000000000
(1510592788.828391) can0 719#1700034001003001
(1510592788.828633) can0 71B#1600000000006991
(1510592788.834482) can0 217#004000007F020000
(1510592788.836064) can0 219#00C07E0080020000
(1510592788.836306) can0 21B#0040000082020000
(1510592788.836554) can0 37B#0000000000000000
(1510592788.846339) can0 34B#0000000000000000
(1510592788.856340) can0 35B#0000000000000000
(1510592788.866337) can0 32B#0000000000000000
(1510592788.870672) can0 45C#0000093E00000000
(1510592788.870801) can0 10C#0D00
(1510592788.870948) can0 549#0DFF
(1510592788.871085) can0 547#0DFF
(1510592788.871220) can0 54B#0DFF
(1510592788.876332) can0 33B#0000000000000000
(1510592788.889105) can0 42C#0060000020000000
(1510592788.889345) can0 43C#0060000020000000
(1510592788.889593) can0 44C#0060000020000000
(1510592788.924628) can0 207#0076000A68011400
(1510592788.924853) can0 227#39048E102000ECD1
(1510592788.925095) can0 237#4541001700000000
(1510592788.925329) can0 247#667D890300002600
(1510592788.925574) can0 717#1900000000000000
(1510592788.926235) can0 209#0077401668011400
(1510592788.926474) can0 20B#0077401768011400
(1510592788.926706) can0 229#2D0406101900ECD1
(1510592788.926935) can0 22B#62040E111A00ECD1
(1510592788.927174) can0 239#4541001700000000
(1510592788.927420) can0 23B#4541001700000000
(1510592788.927651) can0 249#667D890300002600
(1510592788.927887) can0 24B#667D890300002600
(1510592788.928132) can0 719#1800660600000000
(1510592788.928375) can0 71B#1700023001002001
(1510592788.934437) can0 217#004000007F020000
(1510592788.936064) can0 219#00C07E0080020000
(1510592788.936308) can0 21B#0040000082020000
(1510592788.970676) can0 45C#0000093E00000000
(1510592788.989109) can0 42C#0060000020000000
(1510592788.989348) can0 43C#0060000020000000
(1510592788.989596) can0 44C#0060000020000000
(1510592789.024628) can0 207#0076C00968011400
(1510592789.024855) can0 227#3A048D101900ECD1
(1510592789.025092) can0 237#4541001700000000
(1510592789.025325) can0 247#667D890300002600
(1510592789.025567) can0 717#01000000CC0C6000
(1510592789.026197) can0 209#0077001668011400
(1510592789.026439) can0 20B#0077001768011400
(1510592789.026680) can0 229#360409100800ECD1
(1510592789.026906) can0 22B#61040A112E00ECD1
(1510592789.027144) can0 239#4541001700000000
(1510592789.027427) can0 23B#4541001700000000
(1510592789.027620) can0 249#667D890300002600
(1510592789.027856) can0 24B#667D890300002600
(1510592789.028101) can0 719#1900000000000000
(1510592789.028349) can0 71B#1800660600000000
(1510592789.034439) can0 217#004000007F020000
(1510592789.036042) can0 219#00C07E0080020000
(1510592789.036284) can0 21B#0040000082020000
(1510592789.070679) can0 45C#0000093E00000000
(1510592789.070807) can0 10C#0E00
(1510592789.070960) can0 547#0EFF
(1510592789.071097) can0 549#0EFF
(1510592789.071226) can0 54B#0EFF
(1510592789.089111) can0 42C#0060000020000000
(1510592789.089350) can0 43C#0060000020000000
(1510592789.089598) can0 44C#0060000020000000
(1510592789.124604) can0 207#0076800968011400
(1510592789.124812) can0 227#400499101500ECD1
(1510592789.125040) can0 237#4541001700000000
(1510592789.125277) can0 247#667D890300002600
(1510592789.125522) can0 717#0200000000000000
(1510592789.126189) can0 209#0077001668011400
(1510592789.126428) can0 20B#0077001768011400
(1510592789.126662) can0 229#360406100E00ECD1
(1510592789.126895) can0 22B#680400111A00ECD1
(1510592789.127135) can0 239#4541001700000000
(1510592789.127410) can0 23B#4541001700000000
(1510592789.127610) can0 249#667D890300002600
(1510592789.127847) can0 24B#667D890300002600
(1510592789.128089) can0 719#01000000CC0C6000
(1510592789.128335) can0 71B#1900000000000000
(1510592789.134387) can0 217#004000007F020000
(1510592789.136003) can0 219#00C07E0080020000
(1510592789.136248) can0 21B#0040000083020000
(1510592789.170685) can0 45C#0000093E00000000
(1510592789.189119) can0 42C#0060000020000000
(1510592789.189355) can0 43C#0060000020000000
(1510592789.189602) can0 44C#0060000020000000
(1510592789.224560) can0 207#0076800968011400
(1510592789.224793) can0 227#40048C101800ECD1
(1510592789.225032) can0 237#4541001700000000
(1510592789.225264) can0 247#667D890300002600
(1510592789.226189) can0 209#0077001668011400
(1510592789.226426) can0 20B#0077C01668011400
(1510592789.226662) can0 229#3D04FD0F1B00ECD1
(1510592789.226888) can0 22B#700401111300ECD1
(1510592789.227131) can0 239#4541001700000000
(1510592789.227405) can0 23B#4541001700000000
(1510592789.227605) can0 249#667D890300002600
(1510592789.227842) can0 24B#667D890300002600
(1510592789.228088) can0 719#0200000000000000
(1510592789.228328) can0 71B#01000000CC0C6000
(1510592789.234389) can0 217#004000007F020000
(1510592789.236000) can0 219#00C07E0080020000
(1510592789.236246) can0 21B#0040000083020000
(1510592789.270687) can0 45C#0000093E00000000
(1510592789.270814) can0 10C#0F00
(1510592789.270968) can0 54B#0FFF
(1510592789.271106) can0 547#0FFF
(1510592789.271241) can0 549#0FFF
(1510592789.289113) can0 42C#0060000020000000
(1510592789.289355) can0 43C#0060000020000000
(1510592789.289603) can0 44C#0060000020000000
(1510592789.324563) can0 207#0076400968011400
(1510592789.324789) can0 227#3F048D101700ECD1
(1510592789.325028) can0 237#4541001700000000
(1510592789.325262) can0 247#667D890300002600
(1510592789.325500) can0 717#040000000D094604
(1510592789.326151) can0 209#0077C01568011400
(1510592789.326395) can0 20B#0077C01668011400
(1510592789.326628) can0 229#3F0407101100ECD1
(1510592789.326861) can0 22B#6C0404111800ECD1
(1510592789.327101) can0 239#4541001700000000
(1510592789.327373) can0 23B#4541001700000000
(1510592789.327577) can0 249#667D890300002600
(1510592789.327813) can0 24B#667D890300002600
(1510592789.328060) can0 71B#0200000000000000
(1510592789.334375) can0 217#004000007F020000
(1510592789.335984) can0 219#00C07E0080020000
(1510592789.336228) can0 21B#0040000083020000
(1510592789.370690) can0 45C#0000093E00000000
(1510592789.389120) can0 42C#0060000020000000
(1510592789.389360) can0 43C#0060000020000000
(1510592789.389608) can0 44C#0060000020000000
(1510592789.424516) can0 207#0076400968011400
(1510592789.424742) can0 227#42048E100E00ECD1
(1510592789.424980) can0 237#4541001700000000
(1510592789.425216) can0 247#667D890300002600
(1510592789.425460) can0 717#0500000000000000
(1510592789.426126) can0 209#0077C01568011400
(1510592789.426361) can0 20B#0077801668011400
(1510592789.426594) can0 229#3E04FD0F0C00ECD1
(1510592789.426825) can0 22B#7204FD101600ECD1
(1510592789.427066) can0 239#4541001700000000
(1510592789.427305) can0 23B#4541001700000000
(1510592789.427543) can0 249#667D890300002600
(1510592789.427781) can0 24B#667D890300002600
(1510592789.428021) can0 719#040000000D095704
(1510592789.434327) can0 217#004000007F020000
(1510592789.435936) can0 219#00C07E0080020000
(1510592789.436181) can0 21B#0040000083020000
(1510592789.470691) can0 45C#0000093E00000000
(1510592789.470816) can0 10C#1000
(1510592789.470962) can0 54B#10FF
(1510592789.471091) can0 547#10FF
(1510592789.471223) can0 549#10FF
(1510592789.489119) can0 42C#0060000020000000
(1510592789.489361) can0 43C#0060000020000000
(1510592789.489609) can0 44C#0060000020000000
(1510592789.524519) can0 207#0076000968011400
(1510592789.524742) can0 227#45048E101900ECD1
(1510592789.524982) can0 237#4541001700000000
(1510592789.525216) can0 247#667D890300002600
(1510592789.525457) can0 717#0600000099010040
(1510592789.526129) can0 209#0077801568011400
(1510592789.526368) can0 20B#0077801668011400
(1510592789.526597) can0 229#430409101300ECD1
(1510592789.526826) can0 22B#760405111100ECD1
(1510592789.527066) can0 239#4541001700000000
(1510592789.527305) can0 23B#4541001700000000
(1510592789.527543) can0 249#667D890300002600
(1510592789.527778) can0 24B#667D890300002600
(1510592789.528023) can0 719#0500000000000000
(1510592789.528263) can0 71B#040000000D094604
(1510592789.534324) can0 217#004000007F020000
(1510592789.535939) can0 219#00C07E0080020000
(1510592789.536184) can0 21B#0040000083020000
(1510592789.570695) can0 45C#0000093E00000000
(1510592789.589123) can0 42C#0060000020000000
(1510592789.589365) can0 43C#0060000020000000
(1510592789.589614) can0 44C#0060000020000000
(1510592789.624431) can0 367#0000000000000000
(1510592789.624653) can0 207#0076000968011400
(1510592789.624870) can0 227#510492101500ECD1
(1510592789.625108) can0 237#4541001700000000
(1510592789.625343) can0 247#667D890300002600
(1510592789.625586) can0 717#0700000002260000
(1510592789.626085) can0 209#0077801568011400
(1510592789.626328) can0 20B#0077801668011400
(1510592789.626559) can0 229#4204FE0F1400ECD1
(1510592789.626790) can0 22B#7704FD101500ECD1
(1510592789.627030) can0 239#4541001700000000
(1510592789.627269) can0 23B#4541001700000000
(1510592789.627507) can0 249#667D890300002600
(1510592789.627741) can0 24B#667D890300002600
(1510592789.627982) can0 719#0600000099010040
(1510592789.628228) can0 71B#0500000000000000
(1510592789.634307) can0 217#004000007F020000
(1510592789.634550) can0 377#0000000000000000
(1510592789.635899) can0 219#00C07E0080020000
(1510592789.636144) can0 21B#0040000083020000
(1510592789.644404) can0 347#0000000000000000
(1510592789.654395) can0 357#0000000000000000
(1510592789.664393) can0 327#0000000000000000
(1510592789.670694) can0 45C#0000093E00000000
(1510592789.670819) can0 10C#1100
(1510592789.670984) can0 547#11FF
(1510592789.671106) can0 549#11FF
(1510592789.671240) can0 54B#11FF
(1510592789.674389) can0 337#0000000000000000
(1510592789.689127) can0 42C#0060000020000000
(1510592789.689369) can0 43C#0060000020000000
(1510592789.689616) can0 44C#0060000020000000
(1510592789.724452) can0 207#0076C00868011400
(1510592789.724677) can0 227#54048F101400ECD1
(1510592789.724917) can0 237#4541001700000000
(1510592789.725151) can0 247#667D890300002600
(1510592789.725397) can0 717#0800000000000000
(1510592789.725991) can0 369#0000000000000000
(1510592789.726233) can0 209#0077801568011400
(1510592789.726471) can0 20B#0077401668011400
(1510592789.726702) can0 229#52040A101B00ECD1
(1510592789.726932) can0 22B#7D0402111D00ECD1
(1510592789.727173) can0 239#4541001700000000
(1510592789.727416) can0 23B#4541001700000000
(1510592789.727647) can0 249#667D890300002600
(1510592789.727883) can0 24B#667D890300002600
(1510592789.728126) can0 719#0700000002260000
(1510592789.728368) can0 71B#0600000099010040
(1510592789.734260) can0 217#004000007F020000
(1510592789.735900) can0 219#00C07E0080020000
(1510592789.736145) can0 21B#0040000083020000
(1510592789.736395) can0 379#0000000000000000
(1510592789.745990) can0 349#0000000000000000
(1510592789.755990) can0 359#0000000000000000
(1510592789.765986) can0 329#0000000000000000
(1510592789.770702) can0 45C#0000093E00000000
(1510592789.775979) can0 339#0000000000000000
(1510592789.789127) can0 42C#0060000020000000
(1510592789.789370) can0 43C#0060000020000000
(1510592789.789618) can0 44C#0060000020000000
(1510592789.824443) can0 207#0076800868011400
(1510592789.824670) can0 227#580487101600ECD1
(1510592789.824913) can0 237#4541001700000000
(1510592789.825139) can0 247#667D890300002600
(1510592789.825388) can0 717#0900000000000000
(1510592789.826040) can0 209#0077401568011400
(1510592789.826270) can0 229#55040A101400ECD1
(1510592789.826508) can0 20B#0077401668011400
(1510592789.826742) can0 22B#8404FD100E00ECD1
(1510592789.826982) can0 239#4541001700000000
(1510592789.827222) can0 23B#4541001700000000
(1510592789.827466) can0 249#667D890300002600
(1510592789.827694) can0 24B#667D890300002600
(1510592789.827943) can0 36B#0000000000000000
(1510592789.828191) can0 719#0800000000000000
(1510592789.828436) can0 71B#0700000002260000
(1510592789.834253) can0 217#004000007F020000
(1510592789.835877) can0 219#00C07E0080020000
(1510592789.836123) can0 21B#0040000083020000
(1510592789.836371) can0 37B#0000000000000000
(1510592789.846142) can0 34B#0000000000000000
(1510592789.856142) can0 35B#0000000000000000
(1510592789.866137) can0 32B#0000000000000000
(1510592789.870699) can0 45C#0000093E00000000
(1510592789.870828) can0 10C#1200
(1510592789.870976) can0 54B#12FF
(1510592789.871107) can0 547#12FF
(1510592789.871243) can0 549#12FF
(1510592789.876130) can0 33B#0000000000000000
(1510592789.889134) can0 42C#0060000020000000
(1510592789.889372) can0 43C#0060000020000000
(1510592789.889620) can0 44C#0060000020000000
(1510592789.924402) can0 207#0076800868011400
(1510592789.924623) can0 227#5A048F100E00ECD1
(1510592789.924863) can0 237#4541001700000000
(1510592789.925097) can0 247#667D890300002600
(1510592789.925344) can0 717#0A00000000000000
(1510592789.926024) can0 209#0077401568011400
(1510592789.926261) can0 20B#0077401668011400
(1510592789.926496) can0 229#5504FE0F2900ECD1
(1510592789.926730) can0 22B#8704FC101A00ECD1
(1510592789.926970) can0 239#4541001700000000
(1510592789.927210) can0 23B#4541001700000000
(1510592789.927451) can0 249#667D890300002600
(1510592789.927683) can0 24B#667D890300002600
(1510592789.927929) can0 719#0900000000000000
(1510592789.928177) can0 71B#0800000000000000
(1510592789.934211) can0 217#004000007F020000
(1510592789.935839) can0 219#00C07E0080020000
(1510592789.936084) can0 21B#0040000083020000
(1510592789.970723) can0 45C#0000093E00000000
(1510592789.989134) can0 42C#0060000020000000
(1510592789.989376) can0 43C#0060000020000000
(1510592789.989624) can0 44C#0060000020000000
(1510592790.024437) can0 207#0076400868011400
(1510592790.024627) can0 227#65049A100D00ECD1
(1510592790.024877) can0 237#4541001700000000
(1510592790.025102) can0 247#667D890300002600
(1510592790.025350) can0 717#0B00000000000000
(1510592790.026039) can0 209#0077001568011400
(1510592790.026275) can0 20B#0077001668011400
(1510592790.026505) can0 229#600402100F00ECD1
(1510592790.026736) can0 22B#8504F7101300ECD1
(1510592790.026976) can0 239#4541001700000000
(1510592790.027216) can0 23B#4541001700000000
(1510592790.027482) can0 249#667D890300002600
(1510592790.027689) can0 24B#667D890300002600
(1510592790.027933) can0 719#0A00000000000000
(1510592790.028179) can0 71B#0900000000000000
(1510592790.034218) can0 217#004000007F020000
(1510592790.035845) can0 219#00C07E0080020000
(1510592790.036089) can0 21B#0040000083020000
(1510592790.070706) can0 45C#0000093E00000000
(1510592790.070832) can0 10C#1300
(1510592790.070980) can0 549#13FF
(1510592790.071115) can0 547#13FF
(1510592790.071250) can0 54B#13FF
(1510592790.089135) can0 42C#0060000020000000
(1510592790.089378) can0 43C#0060000020000000
(1510592790.089626) can0 44C#0060000020000000
(1510592790.124392) can0 207#0076000868011400
(1510592790.124589) can0 227#65048C100E00ECD1
(1510592790.124826) can0 237#4541001700000000
(1510592790.125062) can0 247#667D890300002600
(1510592790.125303) can0 717#0C00000000060100
(1510592790.125981) can0 209#0077001568011400
(1510592790.126221) can0 20B#0077001668011400
(1510592790.126453) can0 229#5B0402101C00ECD1
(1510592790.126686) can0 22B#8B04F8100D00ECD1
(1510592790.126927) can0 239#4541001700000000
(1510592790.127165) can0 23B#4541001700000000
(1510592790.127409) can0 249#667D890300002600
(1510592790.127638) can0 24B#667D890300002600
(1510592790.127883) can0 719#0B00000000000000
(1510592790.128130) can0 71B#0A00000000000000
(1510592790.134189) can0 217#004000007F020000
(1510592790.135791) can0 219#00C07E0080020000
(1510592790.136036) can0 21B#0040000083020000
(1510592790.170708) can0 45C#0000093E00000000
(1510592790.189136) can0 42C#0060000020000000
(1510592790.189378) can0 43C#0060000020000000
(1510592790.189627) can0 44C#0060000020000000
(1510592790.224335) can0 207#0076000868011400
(1510592790.224562) can0 227#65048F100C00ECD1
(1510592790.224805) can0 237#4541001700000000
(1510592790.225037) can0 247#667D890300002600
(1510592790.225282) can0 717#0E000002060E0000
(1510592790.225989) can0 209#0077001568011400
(1510592790.226226) can0 20B#0077001668011400
(1510592790.226458) can0 229#630401103500ECD1
(1510592790.226690) can0 22B#8F04F9100C00ECD1
(1510592790.226929) can0 239#4541001700000000
(1510592790.227183) can0 23B#4541001700000000
(1510592790.227421) can0 249#667D890300002600
(1510592790.227640) can0 24B#667D890300002600
(1510592790.227883) can0 719#0C00000000060100
(1510592790.228130) can0 71B#0B00000000000000
(1510592790.234148) can0 217#004000007F020000
(1510592790.235795) can0 219#00C07E0080020000
(1510592790.236040) can0 21B#0040000083020000
(1510592790.270713) can0 45C#0000093E00000000
(1510592790.270839) can0 10C#1400
(1510592790.270984) can0 54B#14FF
(1510592790.271115) can0 547#14FF
(1510592790.271249) can0 549#14FF
(1510592790.289141) can0 42C#0060000020000000
(1510592790.289383) can0 43C#0060000020000000
(1510592790.289632) can0 44C#0060000020000000
(1510592790.324341) can0 207#0076C00768011400
(1510592790.324563) can0 227#68048A100B00ECD1
(1510592790.324804) can0 237#4541001700000000
(1510592790.325038) can0 247#667D890300002600
(1510592790.325272) can0 717#0F00C701A30E0000
(1510592790.325946) can0 209#0077C01468011400
(1510592790.326188) can0 20B#0077C01568011400
(1510592790.326418) can0 229#670406101900ECD1
(1510592790.326648) can0 22B#9404FE100F00ECD1
(1510592790.326888) can0 239#4541001700000000
(1510592790.327128) can0 23B#4541001700000000
(1510592790.327396) can0 249#667D890300002600
(1510592790.327601) can0 24B#667D890300002600
(1510592790.327842) can0 719#0E000002060E0000
(1510592790.328088) can0 71B#0C00000000060100
(1510592790.334148) can0 217#004000007F020000
(1510592790.335774) can0 219#00C07E0080020000
(1510592790.336019) can0 21B#0040000083020000
(1510592790.370717) can0 45C#0000093E00000000
(1510592790.389141) can0 42C#0060000020000000
(1510592790.389385) can0 43C#0060000020000000
(1510592790.389633) can0 44C#0060000020000000
(1510592790.424299) can0 207#0076C00768011400
(1510592790.424526) can0 227#68048B100700ECD1
(1510592790.424770) can0 237#4541001700000000
(1510592790.425009) can0 247#667D890300002600
(1510592790.425250) can0 717#1002000017000000
(1510592790.425931) can0 209#0077C01468011400
(1510592790.426170) can0 20B#0077C01568011400
(1510592790.426400) can0 229#6D040B101400ECD1
(1510592790.426629) can0 22B#9704FD101300ECD1
(1510592790.426870) can0 239#4541001700000000
(1510592790.427112) can0 23B#4541001700000000
(1510592790.427379) can0 249#667D890300002600
(1510592790.427583) can0 24B#667D890300002600
(1510592790.427821) can0 719#0F00C701120C0000
(1510592790.428065) can0 71B#0E000002060E0000
(1510592790.434113) can0 217#004000007F020000
(1510592790.435735) can0 219#00C07E0080020000
(1510592790.435981) can0 21B#0040000083020000
(1510592790.470718) can0 45C#0000093E00000000
(1510592790.470846) can0 10C#1500
(1510592790.470991) can0 549#15FF
(1510592790.471128) can0 547#15FF
(1510592790.471257) can0 54B#15FF
(1510592790.489147) can0 42C#0060000020000000
(1510592790.489390) can0 43C#0060000020000000
(1510592790.489638) can0 44C#0060000020000000
(1510592790.524286) can0 207#0076800768011400
(1510592790.524513) can0 227#6F048A101000ECD1
(1510592790.524753) can0 237#4541001700000000
(1510592790.524986) can0 247#667D890300002600
(1510592790.525232) can0 717#11008DF300000000
(1510592790.525928) can0 209#0077C01468011400
(1510592790.526168) can0 20B#0077801568011400
(1510592790.526401) can0 229#73040E101200ECD1
(1510592790.526633) can0 22B#9904FA101200ECD1
(1510592790.526873) can0 239#4541001700000000
(1510592790.527113) can0 23B#4541001700000000
(1510592790.527371) can0 249#667D890300002600
(1510592790.527586) can0 24B#667D890300002600
(1510592790.527825) can0 719#10F40F0017000000
(1510592790.528061) can0 71B#0F00C7015B0E0000
(1510592790.534103) can0 217#004000007F020000
(1510592790.535737) can0 219#00C07E0080020000
(1510592790.535982) can0 21B#0040000083020000
(1510592790.570720) can0 45C#0000093E00000000
(1510592790.589149) can0 42C#0060000020000000
(1510592790.589393) can0 43C#0060000020000000
(1510592790.589640) can0 44C#0060000020000000
(1510592790.624203) can0 367#0000000000000000
(1510592790.624426) can0 207#0076400768011400
(1510592790.624670) can0 227#810494100500ECD1
(1510592790.624892) can0 237#4541001700000000
(1510592790.625129) can0 247#667D890300002600
(1510592790.625362) can0 717#1240280027001700
(1510592790.625875) can0 209#0077801468011400
(1510592790.626114) can0 20B#0077801568011400
(1510592790.626354) can0 229#730403101A00ECD1
(1510592790.626582) can0 22B#A004FB100700ECD1
(1510592790.626820) can0 239#4541001700000000
(1510592790.627061) can0 23B#4541001700000000
(1510592790.627297) can0 249#667D890300002600
(1510592790.627533) can0 24B#667D890300002600
(1510592790.627769) can0 719#1100F2F300000000
(1510592790.628016) can0 71B#1000000016000000
(1510592790.634090) can0 217#004000007F020000
(1510592790.634333) can0 377#0000000000000000
(1510592790.635687) can0 219#00C07E0080020000
(1510592790.635933) can0 21B#0040000083020000
(1510592790.644174) can0 347#0000000000000000
(1510592790.654167) can0 357#0000000000000000
(1510592790.664165) can0 327#0000000000000000
(1510592790.670721) can0 45C#0000093E00000000
(1510592790.670846) can0 10C#1600
(1510592790.670996) can0 547#16FF
(1510592790.671132) can0 549#16FF
(1510592790.671266) can0 54B#16FF
(1510592790.674163) can0 337#0000000000000000
(1510592790.689152) can0 42C#0060000020000000
(1510592790.689395) can0 43C#0060000020000000
(1510592790.689643) can0 44C#0060000020000000
(1510592790.724237) can0 207#0076400768011400
(1510592790.724465) can0 227#84049B100400ECD1
(1510592790.724706) can0 237#4541001700000000
(1510592790.724940) can0 247#667D890300002600
(1510592790.725189) can0 717#1300000000000000
(1510592790.725781) can0 369#0000000000000000
(1510592790.726019) can0 209#0077801468011400
(1510592790.726262) can0 20B#0077801568011400
(1510592790.726495) can0 229#84040E101800ECD1
(1510592790.726732) can0 22B#9F04FA101500ECD1
(1510592790.726972) can0 239#4541001700000000
(1510592790.727212) can0 23B#4541001700000000
(1510592790.727452) can0 249#667D890300002600
(1510592790.727684) can0 24B#667D890300002600
(1510592790.727920) can0 719#1240290027001500
(1510592790.728163) can0 71B#110038F300000000
(1510592790.734045) can0 217#004000007F020000
(1510592790.735689) can0 219#00807E0080020000
(1510592790.735934) can0 21B#0040000083020000
(1510592790.736184) can0 379#0000000000000000
(1510592790.745804) can0 349#0000000000000000
(1510592790.755790) can0 359#0000000000000000
(1510592790.765787) can0 329#0000000000000000
(1510592790.770725) can0 45C#0000093E00000000
(1510592790.775783) can0 339#0000000000000000
(1510592790.789159) can0 42C#0060000020000000
(1510592790.789397) can0 43C#0060000020000000
(1510592790.789645) can0 44C#0060000020000000
(1510592790.824231) can0 207#0076000768011400
(1510592790.824459) can0 227#770491101100ECD1
(1510592790.824694) can0 237#4541001700000000
(1510592790.824932) can0 247#667D890300002600
(1510592790.825170) can0 717#14000000872A0000
(1510592790.825873) can0 209#0077401468011400
(1510592790.826099) can0 229#87040D101400ECD1
(1510592790.826337) can0 20B#0077401568011400
(1510592790.826572) can0 22B#AA0402110600ECD1
(1510592790.826813) can0 239#4541001700000000
(1510592790.827053) can0 23B#4541001700000000
(1510592790.827288) can0 249#667D890300002600
(1510592790.827525) can0 24B#667D890300002600
(1510592790.827773) can0 36B#0000000000000000
(1510592790.828017) can0 719#1300000000000000
(1510592790.828253) can0 71B#1240290027001600
(1510592790.834042) can0 217#004000007F020000
(1510592790.835678) can0 219#00807E0080020000
(1510592790.835924) can0 21B#0040000083020000
(1510592790.836171) can0 37B#0000000000000000
(1510592790.845943) can0 34B#0000000000000000
(1510592790.855943) can0 35B#0000000000000000
(1510592790.865937) can0 32B#0000000000000000
(1510592790.870726) can0 45C#0000093E00000000
(1510592790.870853) can0 10C#1700
(1510592790.871006) can0 549#17FF
(1510592790.871137) can0 547#17FF
(1510592790.871273) can0 54B#17FF
(1510592790.875924) can0 33B#0000000000000000
(1510592790.889154) can0 42C#0060000020000000
(1510592790.889399) can0 43C#0060000020000000
(1510592790.889647) can0 44C#0060000020000000
(1510592790.924184) can0 207#0076C00668011400
(1510592790.924417) can0 227#850498100C00ECD1
(1510592790.924657) can0 237#4541001700000000
(1510592790.924890) can0 247#667D890300002600
(1510592790.925813) can0 209#0077401468011400
(1510592790.926048) can0 20B#0077401568011400
(1510592790.926283) can0 229#8F0414102200ECD1
(1510592790.926513) can0 22B#AB04FF100700ECD1
(1510592790.926753) can0 239#4541001700000000
(1510592790.926992) can0 23B#4541001700000000
(1510592790.927229) can0 249#667D890300002600
(1510592790.927466) can0 24B#667D890300002600
(1510592790.927707) can0 719#14000000C82B0000
(1510592790.927953) can0 71B#1300000000000000
(1510592790.934024) can0 217#004000007F020000
(1510592790.935628) can0 219#00807E0080020000
(1510592790.935874) can0 21B#0040000083020000
(1510592790.970730) can0 45C#0000093E00000000
(1510592790.989165) can0 42C#0060000020000000
(1510592790.989403) can0 43C#0060000020000000
(1510592790.989650) can0 44C#0060000020000000
(1510592791.024162) can0 207#0076000768011400
(1510592791.024390) can0 227#880497100700ECD1
(1510592791.024628) can0 237#4541001700000000
(1510592791.024878) can0 247#667D890300002600
(1510592791.025102) can0 717#1600000000007991
(1510592791.025837) can0 209#0077401468011400
(1510592791.026056) can0 20B#0077401568011400
(1510592791.026290) can0 229#860411101200ECD1
(1510592791.026520) can0 22B#AE04FE100F00ECD1
(1510592791.026764) can0 239#4541001700000000
(1510592791.027000) can0 23B#4541001700000000
(1510592791.027238) can0 249#667D890300002600
(1510592791.027474) can0 24B#667D890300002600
(1510592791.027715) can0 71B#14000000F22A0000
(1510592791.033984) can0 217#004000007F020000
(1510592791.035633) can0 219#00807E0080020000
(1510592791.035879) can0 21B#0040000083020000
(1510592791.070733) can0 45C#0000093E00000000
(1510592791.070860) can0 10C#1800
(1510592791.071007) can0 547#18FF
(1510592791.071144) can0 549#18FF
(1510592791.071271) can0 54B#18FF
(1510592791.089163) can0 42C#0060000020000000
(1510592791.089405) can0 43C#0060000020000000
(1510592791.089653) can0 44C#0060000020000000
(1510592791.124193) can0 207#0076800668011400
(1510592791.124395) can0 227#8A0494100C00ECD1
(1510592791.124633) can0 237#4541001700000000
(1510592791.124869) can0 247#667D890300002600
(1510592791.125110) can0 717#1700004001002001
(1510592791.125788) can0 209#0077001468011400
(1510592791.126032) can0 20B#0077001568011400
(1510592791.126259) can0 229#920412101900ECD1
(1510592791.126488) can0 22B#B60407110F00ECD1
(1510592791.126727) can0 239#4541001700000000
(1510592791.126965) can0 23B#4541001700000000
(1510592791.127200) can0 249#667D890300002600
(1510592791.127438) can0 24B#667D890300002600
(1510592791.127678) can0 719#160000000000BD89
(1510592791.133977) can0 217#004000007F020000
(1510592791.135610) can0 219#00807E0080020000
(1510592791.135855) can0 21B#0040000083020000
(1510592791.170738) can0 45C#0000093E00000000
(1510592791.189165) can0 42C#0060000020000000
(1510592791.189408) can0 43C#0060000020000000
(1510592791.189655) can0 44C#0060000020000000
(1510592791.224125) can0 207#0076800668011400
(1510592791.224352) can0 227#8D0496100500ECD1
(1510592791.224597) can0 237#4541001700000000
(1510592791.224826) can0 247#667D890300002600
(1510592791.225072) can0 717#1800660600000000
(1510592791.225769) can0 209#0077001468011400
(1510592791.226000) can0 20B#0077001568011400
(1510592791.226232) can0 229#91040D100D00ECD1
(1510592791.226466) can0 22B#BB0405111300ECD1
(1510592791.226708) can0 239#4541001700000000
(1510592791.226945) can0 23B#4541001700000000
(1510592791.227189) can0 249#667D890300002600
(1510592791.227453) can0 24B#667D890300002600
(1510592791.227655) can0 719#1700036001004001
(1510592791.227898) can0 71B#160000000000118C
(1510592791.233954) can0 217#004000007F020000
(1510592791.235572) can0 219#00807E0080020000
(1510592791.235815) can0 21B#0040000083020000
(1510592791.270741) can0 45C#0000093E00000000
(1510592791.270864) can0 10C#1900
(1510592791.271015) can0 547#19FF
(1510592791.271143) can0 549#19FF
(1510592791.271277) can0 54B#19FF
(1510592791.289169) can0 42C#0060000020000000
(1510592791.289412) can0 43C#0060000020000000
(1510592791.289660) can0 44C#0060000020000000
(1510592791.324126) can0 207#0076400668011400
(1510592791.324353) can0 227#90049C100A00ECD1
(1510592791.324593) can0 237#4541001700000000
(1510592791.324827) can0 247#667D890300002600
(1510592791.325073) can0 717#1900000000000000
(1510592791.325762) can0 209#0077C01368011400
(1510592791.326003) can0 20B#0077C01468011400
(1510592791.326235) can0 229#8E040F101200ECD1
(1510592791.326467) can0 22B#C30401110600ECD1
(1510592791.326707) can0 239#4541001700000000
(1510592791.326946) can0 23B#4541001700000000
(1510592791.327182) can0 249#667D890300002600
(1510592791.327420) can0 24B#667D890300002600
(1510592791.327665) can0 719#1800660600000000
(1510592791.327906) can0 71B#1700015001006001
(1510592791.333937) can0 217#004000007F020000
(1510592791.335563) can0 219#00807E0080020000
(1510592791.335808) can0 21B#0040000083020000
(1510592791.370747) can0 45C#0000093E00000000
(1510592791.389169) can0 42C#0060000020000000
(1510592791.389412) can0 43C#0060000020000000
(1510592791.389660) can0 44C#0060000020000000
(1510592791.424072) can0 207#0076000668011400
(1510592791.424304) can0 227#91049E100C00ECD1
(1510592791.424544) can0 237#4541001700000000
(1510592791.424776) can0 247#667D890300002600
(1510592791.425022) can0 717#01000000CC0C6000
(1510592791.425727) can0 209#0077C01368011400
(1510592791.425964) can0 20B#0077C01468011400
(1510592791.426197) can0 229#990416101000ECD1
(1510592791.426432) can0 22B#CA040D110600ECD1
(1510592791.426668) can0 239#4541001700000000
(1510592791.426922) can0 23B#4541001700000000
(1510592791.427143) can0 249#667D890300002600
(1510592791.427411) can0 24B#667D890300002600
(1510592791.427628) can0 719#1900000000000000
(1510592791.427871) can0 71B#1800660600000000
(1510592791.433907) can0 217#004000007F020000
(1510592791.435535) can0 219#00807E0080020000
(1510592791.435779) can0 21B#0040000083020000
(1510592791.470736) can0 45C#0000093E00000000
(1510592791.470858) can0 10C#1A00
(1510592791.471006) can0 54B#1AFF
(1510592791.471144) can0 547#1AFF
(1510592791.471272) can0 549#1AFF
(1510592791.489176) can0 42C#0060000020000000
(1510592791.489418) can0 43C#0060000020000000
(1510592791.489666) can0 44C#0060000020000000
(1510592791.524058) can0 207#0076000668011400
(1510592791.524283) can0 227#8E0495100900ECD1
(1510592791.524524) can0 237#4541001700000000
(1510592791.524757) can0 247#667D890300002600
(1510592791.525003) can0 717#0200000000000000
(1510592791.525719) can0 209#0077C01368011400
(1510592791.525961) can0 20B#0077C01468011400
(1510592791.526192) can0 229#97040C100D00ECD1
(1510592791.526421) can0 22B#CA0405110900ECD1
(1510592791.526661) can0 239#4541001700000000
(1510592791.526901) can0 23B#4541001700000000
(1510592791.527137) can0 249#667D890300002600
(1510592791.527403) can0 24B#667D890300002600
(1510592791.527615) can0 719#01000000CC0C6000
(1510592791.527862) can0 71B#1900000000000000
(1510592791.533870) can0 217#004000007F020000
(1510592791.535538) can0 219#00807E0080020000
(1510592791.535773) can0 21B#0040000083020000
(1510592791.570739) can0 45C#0000093E00000000
(1510592791.589174) can0 42C#0060000020000000
(1510592791.589417) can0 43C#0060000020000000
(1510592791.589665) can0 44C#0060000020000000
(1510592791.623989) can0 367#0000000000000000
(1510592791.624215) can0 207#0076C00568011400
(1510592791.624435) can0 227#A30494100700ECD1
(1510592791.624677) can0 237#4541001700000000
(1510592791.624908) can0 247#667D890300002600
(1510592791.625683) can0 209#0077801368011400
(1510592791.625918) can0 20B#0077801468011400
(1510592791.626148) can0 229#9D040F100E00ECD1
(1510592791.626377) can0 22B#CB040A111200ECD1
(1510592791.626618) can0 239#4541001700000000
(1510592791.626855) can0 23B#4541001700000000
(1510592791.627091) can0 249#667D890300002600
(1510592791.627327) can0 24B#667D890300002600
(1510592791.627576) can0 719#0200000000000000
(1510592791.627815) can0 71B#01000000CC0C6000
(1510592791.633874) can0 217#004000007F020000
(1510592791.634118) can0 377#0000000000000000
(1510592791.635510) can0 219#00807E0080020000
(1510592791.635755) can0 21B#0040000083020000
(1510592791.643959) can0 347#0000000000000000
(1510592791.653954) can0 357#0000000000000000
(1510592791.663952) can0 327#0000000000000000
(1510592791.670738) can0 45C#0000093E00000000
(1510592791.670876) can0 10C#1B00
(1510592791.671021) can0 54B#1BFF
(1510592791.671158) can0 547#1BFF
(1510592791.671283) can0 549#1BFF
(1510592791.673949) can0 337#0000000000000000
(1510592791.689176) can0 42C#0060000020000000
(1510592791.689419) can0 43C#0060000020000000
(1510592791.689666) can0 44C#0060000020000000
(1510592791.724010) can0 207#0076800568011400
(1510592791.724242) can0 227#A50498100800ECD1
(1510592791.724482) can0 237#4541001700000000
(1510592791.724714) can0 247#667D890300002600
(1510592791.724955) can0 717#040000000D091804
(1510592791.725580) can0 369#0000000000000000
(1510592791.725818) can0 209#0077801368011400
(1510592791.726059) can0 20B#0077C01468011400
(1510592791.726294) can0 229#9F0410100F00ECD1
(1510592791.726526) can0 22B#D2040B110200ECD1
(1510592791.726766) can0 239#4541001700000000
(1510592791.727007) can0 23B#4541001700000000
(1510592791.727243) can0 249#667D890300002600
(1510592791.727480) can0 24B#667D890300002600
(1510592791.727726) can0 71B#0200000000000000
(1510592791.733821) can0 217#004000007F020000
(1510592791.735462) can0 219#00807E0080020000
(1510592791.735706) can0 21B#0040000083020000
(1510592791.735956) can0 379#0000000000000000
(1510592791.745572) can0 349#0000000000000000
(1510592791.755561) can0 359#0000000000000000
(1510592791.765583) can0 329#0000000000000000
(1510592791.770741) can0 45C#0000093E00000000
(1510592791.775568) can0 339#0000000000000000
(1510592791.789180) can0 42C#0060000020000000
(1510592791.789424) can0 43C#0060000020000000
(1510592791.789670) can0 44C#0060000020000000
(1510592791.824010) can0 207#0076C00568011400
(1510592791.824256) can0 227#A00499100400ECD1
(1510592791.824485) can0 237#4541001700000000
(1510592791.824717) can0 247#667D890300002600
(1510592791.824964) can0 717#0500000000000000
(1510592791.825659) can0 209#0077401368011400
(1510592791.825888) can0 229#A70408101200ECD1
(1510592791.826130) can0 20B#0077801468011400
(1510592791.826361) can0 22B#CE0404110600ECD1
(1510592791.826600) can0 239#4541001700000000
(1510592791.826843) can0 23B#4541001700000000
(1510592791.827139) can0 249#667D890300002600
(1510592791.827313) can0 24B#667D890300002600
(1510592791.827562) can0 36B#0000000000000000
(1510592791.827798) can0 719#040000000D096604
(1510592791.833824) can0 217#004000007F020000
(1510592791.835468) can0 219#00807E0080020000
(1510592791.835711) can0 21B#0040000083020000
(1510592791.835959) can0 37B#0000000000000000
(1510592791.845731) can0 34B#0000000000000000
(1510592791.855731) can0 35B#0000000000000000
(1510592791.865727) can0 32B#0000000000000000
(1510592791.870744) can0 45C#0000093E00000000
(1510592791.870876) can0 10C#1C00
(1510592791.871023) can0 549#1CFF
(1510592791.871153) can0 547#1CFF
(1510592791.871286) can0 54B#1CFF
(1510592791.875722) can0 33B#0000000000000000
(1510592791.889182) can0 42C#0060000020000000
(1510592791.889425) can0 43C#0060000020000000
(1510592791.889673) can0 44C#0060000020000000
(1510592791.923969) can0 207#0076400568011400
(1510592791.924197) can0 227#A60495100400ECD1
(1510592791.924436) can0 237#4541001700000000
(1510592791.924671) can0 247#667D890300002600
(1510592791.924912) can0 717#0600000099010040
(1510592791.925616) can0 209#0077401368011400
(1510592791.925856) can0 20B#0077801468011400
(1510592791.926090) can0 229#A4040B101400ECD1
(1510592791.926320) can0 22B#DA0407110700ECD1
(1510592791.926560) can0 239#4541001700000000
(1510592791.926804) can0 23B#4541001700000000
(1510592791.927038) can0 249#667D890300002600
(1510592791.927274) can0 24B#667D890300002600
(1510592791.927520) can0 719#0500000000000000
(1510592791.927761) can0 71B#040000000D096104
(1510592791.933809) can0 217#004000007F020000
(1510592791.935433) can0 219#00807E0080020000
(1510592791.935675) can0 21B#0040000083020000
(1510592791.970752) can0 45C#0000093E00000000
(1510592791.989186) can0 42C#0060000020000000
(1510592791.989429) can0 43C#0060000020000000
(1510592791.989678) can0 44C#0060000020000000
(1510592792.023951) can0 207#0076000568011400
(1510592792.024187) can0 227#AA0494100800ECD1
(1510592792.024427) can0 237#4541001700000000
(1510592792.024664) can0 247#667D890300002600
(1510592792.024905) can0 717#0700000002260000
(1510592792.025621) can0 209#0077401368011400
(1510592792.025852) can0 20B#0077401468011400
(1510592792.026076) can0 229#AF0407101200ECD1
(1510592792.026309) can0 22B#DA040E110400ECD1
(1510592792.026549) can0 239#4541001700000000
(1510592792.026788) can0 23B#4541001700000000
(1510592792.027026) can0 249#667D890300002600
(1510592792.027261) can0 24B#667D890300002600
(1510592792.027511) can0 719#0600000099010040
(1510592792.027764) can0 71B#0500000000000000
(1510592792.033768) can0 217#004000007F020000
(1510592792.035434) can0 219#00807E0080020000
(1510592792.035678) can0 21B#0040000083020000
(1510592792.070755) can0 45C#0000093E00000000
(1510592792.070879) can0 10C#1D00
(1510592792.071026) can0 547#1DFF
(1510592792.071162) can0 549#1DFF
(1510592792.071288) can0 54B#1DFF
(1510592792.089193) can0 42C#0060000020000000
(1510592792.089433) can0 43C#0060000020000000
(1510592792.089680) can0 44C#0060000020000000
(1510592792.123979) can0 207#0076000568011400
(1510592792.124177) can0 227#A70496100C00ECD1
(1510592792.124425) can0 237#4541001700000000
(1510592792.124653) can0 247#667D890300002600
(1510592792.124899) can0 717#0800000000000000
(1510592792.125581) can0 209#0077001368011400
(1510592792.125822) can0 20B#0077001468011400
(1510592792.126054) can0 229#AD0405100D00ECD1
(1510592792.126281) can0 22B#DC0406110900ECD1
(1510592792.126522) can0 239#4541001700000000
(1510592792.126761) can0 23B#4541001700000000
(1510592792.126997) can0 249#667D890300002600
(1510592792.127234) can0 24B#667D890300002600
(1510592792.127477) can0 719#0700000002260000
(1510592792.127718) can0 71B#0600000099010040
(1510592792.133752) can0 217#004000007F020000
(1510592792.135407) can0 219#00807E0080020000
(1510592792.135652) can0 21B#0040000083020000
(1510592792.170755) can0 45C#0000093E00000000
(1510592792.189193) can0 42C#0060000020000000
(1510592792.189437) can0 43C#0060000020000000
(1510592792.189684) can0 44C#0060000020000000
(1510592792.223898) can0 207#0076800468011400
(1510592792.224129) can0 227#B2048F100400ECD1
(1510592792.224369) can0 237#4541001700000000
(1510592792.224603) can0 247#667D890300002600
(1510592792.224861) can0 717#0900000000000000
(1510592792.225562) can0 209#0077001368011400
(1510592792.225799) can0 20B#0077001468011400
(1510592792.226026) can0 229#B204FD0F0B00ECD1
(1510592792.226261) can0 22B#E4040C110F00ECD1
(1510592792.226501) can0 239#4541001700000000
(1510592792.226739) can0 23B#4541001700000000
(1510592792.226975) can0 249#667D890300002600
(1510592792.227210) can0 24B#667D890300002600
(1510592792.227463) can0 719#0800000000000000
(1510592792.227706) can0 71B#0700000002260000
(1510592792.233712) can0 217#004000007F020000
(1510592792.235368) can0 219#00807E0080020000
(1510592792.235614) can0 21B#0040000083020000
(1510592792.270759) can0 45C#0000093E00000000
(1510592792.270884) can0 10C#1E00
(1510592792.271030) can0 54B#1EFF
(1510592792.271165) can0 547#1EFF
(1510592792.271299) can0 549#1EFF
(1510592792.289195) can0 42C#0060000020000000
(1510592792.289438) can0 43C#0060000020000000
(1510592792.289685) can0 44C#0060000020000000
(1510592792.323888) can0 207#0076C00468011400
(1510592792.324113) can0 227#B10492100600ECD1
(1510592792.324354) can0 237#4641001700000000
(1510592792.324587) can0 247#667D890300002600
(1510592792.324833) can0 717#0A00000000000000
(1510592792.325571) can0 209#0077C01268011400
(1510592792.325811) can0 20B#0077001468011400
(1510592792.326041) can0 229#B00406100B00ECD1
(1510592792.326272) can0 22B#E70405110500ECD1
(1510592792.326513) can0 239#4541001700000000
(1510592792.326751) can0 23B#4541001700000000
(1510592792.326987) can0 249#667D890300002600
(1510592792.327223) can0 24B#667D890300002600
(1510592792.327471) can0 719#0900000000000000
(1510592792.327717) can0 71B#0800000000000000
(1510592792.333699) can0 217#004000007F020000
(1510592792.335372) can0 219#00807E0080020000
(1510592792.335618) can0 21B#0040000083020000
(1510592792.370763) can0 45C#0000093E00000000
(1510592792.389198) can0 42C#0060000020000000
(1510592792.389442) can0 43C#0060000020000000
(1510592792.389690) can0 44C#0060000020000000
(1510592792.423890) can0 207#0076800468011400
(1510592792.424122) can0 227#B10494100600ECD1
(1510592792.424358) can0 237#4641001700000000
(1510592792.424590) can0 247#667D890300002600
(1510592792.424837) can0 717#0B00000000000000
(1510592792.425520) can0 209#0077C01268011400
(1510592792.425761) can0 20B#0077C01368011400
(1510592792.425996) can0 229#B304FC0F0A00ECD1
(1510592792.426233) can0 22B#E60408110900ECD1
(1510592792.426462) can0 239#4541001700000000
(1510592792.426706) can0 23B#4541001700000000
(1510592792.426946) can0 249#667D890300002600
(1510592792.427181) can0 24B#667D890300002600
(1510592792.427461) can0 719#0A00000000000000
(1510592792.427674) can0 71B#0900000000000000
(1510592792.433706) can0 217#004000007F020000
(1510592792.435327) can0 219#00807E0080020000
(1510592792.435571) can0 21B#0040000083020000
(1510592792.470766) can0 45C#0000093E00000000
(1510592792.470893) can0 10C#1F00
(1510592792.471047) can0 547#1FFF
(1510592792.471185) can0 549#1FFF
(1510592792.471320) can0 54B#1FFF
(1510592792.489202) can0 42C#0060000020000000
(1510592792.489443) can0 43C#0060000020000000
(1510592792.489691) can0 44C#0060000020000000
(1510592792.523839) can0 207#0076400468011400
(1510592792.524066) can0 227#B50493100700ECD1
(1510592792.524306) can0 237#4541001700000000
(1510592792.524540) can0 247#667D890300002600
(1510592792.524783) can0 717#0C00000000060100
(1510592792.525507) can0 209#0077C01268011400
(1510592792.525749) can0 20B#0077C01368011400
(1510592792.525978) can0 229#B80401100700ECD1
(1510592792.526210) can0 22B#EC0405111000ECD1
(1510592792.526451) can0 239#4541001700000000
(1510592792.526690) can0 23B#4541001700000000
(1510592792.526927) can0 249#667D890300002600
(1510592792.527162) can0 24B#667D890300002600
(1510592792.527412) can0 719#0B00000000000000
(1510592792.527655) can0 71B#0A00000000000000
(1510592792.533647) can0 217#004000007F020000
(1510592792.535312) can0 219#00807E0080020000
(1510592792.535557) can0 21B#0040000083020000
(1510592792.570766) can0 45C#0000093E00000000
(1510592792.589202) can0 42C#0060000020000000
(1510592792.589446) can0 43C#0060000020000000
(1510592792.589694) can0 44C#0060000020000000
(1510592792.623765) can0 367#0000000000000000
(1510592792.623987) can0 207#0076400468011400
(1510592792.624207) can0 227#BA0496100700ECD1
(1510592792.624452) can0 237#4541001700000000
(1510592792.624680) can0 247#667D890300002600
(1510592792.624920) can0 717#0E00000266170000
(1510592792.625495) can0 209#0077801268011400
(1510592792.625730) can0 20B#0077801368011400
(1510592792.625970) can0 229#BA0401100200ECD1
(1510592792.626197) can0 22B#EC0403110900ECD1
(1510592792.626438) can0 239#4541001700000000
(1510592792.626697) can0 23B#4541001700000000
(1510592792.626915) can0 249#667D890300002600
(1510592792.627151) can0 24B#667D890300002600
(1510592792.627412) can0 719#0C00000000060100
(1510592792.627641) can0 71B#0B00000000000000
(1510592792.633651) can0 217#004000007F020000
(1510592792.633895) can0 377#0000000000000000
(1510592792.635305) can0 219#00807E0080020000
(1510592792.635551) can0 21B#0040000083020000
(1510592792.643736) can0 347#0000000000000000
(1510592792.653731) can0 357#0000000000000000
(1510592792.663729) can0 327#0000000000000000
(1510592792.670769) can0 45C#0000093E00000000
(1510592792.670894) can0 10C#2000
(1510592792.671041) can0 54B#20FF
(1510592792.671177) can0 547#20FF
(1510592792.671313) can0 549#20FF
(1510592792.673725) can0 337#0000000000000000
(1510592792.689208) can0 42C#0060000020000000
(1510592792.689447) can0 43C#0060000020000000
(1510592792.689695) can0 44C#0060000020000000
(1510592792.723797) can0 207#0076000468011400
(1510592792.724029) can0 227#C0048E100800ECD1
(1510592792.724268) can0 237#4541001700000000
(1510592792.724501) can0 247#667D890300002600
(1510592792.724737) can0 717#0F00C7019D0E0000
(1510592792.725381) can0 369#0000000000000000
(1510592792.725619) can0 209#0077801268011400
(1510592792.725862) can0 20B#0077C01368011400
(1510592792.726094) can0 229#C10401100D00ECD1
(1510592792.726337) can0 22B#EF0402110500ECD1
(1510592792.726567) can0 239#4541001700000000
(1510592792.726805) can0 23B#4541001700000000
(1510592792.727041) can0 249#667D890300002600
(1510592792.727278) can0 24B#667D890300002600
(1510592792.727518) can0 719#0E00000266170000
(1510592792.727762) can0 71B#0C00000000060100
(1510592792.733626) can0 217#004000007F020000
(1510592792.735265) can0 219#00807E0080020000
(1510592792.735508) can0 21B#0040000083020000
(1510592792.735760) can0 379#0000000000000000
(1510592792.745380) can0 349#0000000000000000
(1510592792.755379) can0 359#0000000000000000
(1510592792.765375) can0 329#0000000000000000
(1510592792.770769) can0 45C#0000093E00000000
(1510592792.775358) can0 339#0000000000000000
(1510592792.789212) can0 42C#0060000020000000
(1510592792.789448) can0 43C#0060000020000000
(1510592792.789696) can0 44C#0060000020000000
(1510592792.823772) can0 207#0076000468011400
(1510592792.824003) can0 227#C00490100200ECD1
(1510592792.824245) can0 237#4541001700000000
(1510592792.824487) can0 247#667D890300002600
(1510592792.824728) can0 717#1002000017000000
(1510592792.825459) can0 209#0077801268011400
(1510592792.825687) can0 229#C604FD0F1000ECD1
(1510592792.825927) can0 20B#0077801368011400
(1510592792.826159) can0 22B#F804FF100500ECD1
(1510592792.826399) can0 239#4541001700000000
(1510592792.826642) can0 23B#4541001700000000
(1510592792.826878) can0 249#667D890300002600
(1510592792.827118) can0 24B#667D890300002600
(1510592792.827398) can0 36B#0000000000000000
(1510592792.827603) can0 719#0F00C701120C0000
(1510592792.827841) can0 71B#0E00000266170000
(1510592792.833586) can0 217#004000007F020000
(1510592792.835268) can0 219#00807E0080020000
(1510592792.835512) can0 21B#0040000083020000
(1510592792.835760) can0 37B#0000000000000000
(1510592792.845532) can0 34B#0000000000000000
(1510592792.855535) can0 35B#0000000000000000
(1510592792.865528) can0 32B#0000000000000000
(1510592792.870771) can0 45C#0000093E00000000
(1510592792.870897) can0 10C#2100
(1510592792.871051) can0 549#21FF
(1510592792.871179) can0 547#21FF
(1510592792.871310) can0 54B#21FF
(1510592792.875525) can0 33B#0000000000000000
(1510592792.889210) can0 42C#0060000020000000
(1510592792.889453) can0 43C#0060000020000000
(1510592792.889701) can0 44C#0060000020000000
(1510592792.923773) can0 207#0076C00368011400
(1510592792.924004) can0 227#BD048C100800ECD1
(1510592792.924244) can0 237#4541001700000000
(1510592792.924477) can0 247#667D890300002600
(1510592792.924718) can0 717#11008BF300000000
(1510592792.925413) can0 209#0077401268011400
(1510592792.925653) can0 20B#0077801368011400
(1510592792.925883) can0 229#C40402101900ECD1
(1510592792.926112) can0 22B#F504FF100F00ECD1
(1510592792.926352) can0 239#4541001700000000
(1510592792.926592) can0 23B#4541001700000000
(1510592792.926829) can0 249#667D890300002600
(1510592792.927064) can0 24B#667D890300002600
(1510592792.927305) can0 719#10F40F0017000000
(1510592792.927542) can0 71B#0F00C701610E0000
(1510592792.933585) can0 217#004000007F020000
(1510592792.935242) can0 219#00807E0080020000
(1510592792.935485) can0 21B#0040000083020000
(1510592792.970773) can0 45C#0000093E00000000
(1510592792.989211) can0 42C#0060000020000000
(1510592792.989454) can0 43C#0060000020000000
(1510592792.989703) can0 44C#0060000020000000
(1510592793.023730) can0 207#0076800368011400
(1510592793.023960) can0 227#D10487100500ECD1
(1510592793.024203) can0 237#4541001700000000
(1510592793.024433) can0 247#667D890300002600
(1510592793.024665) can0 717#1240290027001700
(1510592793.025394) can0 209#0077401268011400
(1510592793.025632) can0 20B#0077401368011400
(1510592793.025866) can0 229#C90401100B00ECD1
(1510592793.026101) can0 22B#0005FC100E00ECD1
(1510592793.026343) can0 239#4541001700000000
(1510592793.026583) can0 23B#4541001700000000
(1510592793.026825) can0 249#667D890300002600
(1510592793.027054) can0 24B#667D890300002600
(1510592793.027293) can0 719#1100F4F300000000
(1510592793.027546) can0 71B#1000000017000000
(1510592793.033537) can0 217#004000007F020000
(1510592793.035207) can0 219#00807E0080020000
(1510592793.035459) can0 21B#0040000083020000
(1510592793.070782) can0 45C#0000093E00000000
(1510592793.070903) can0 10C#2200
(1510592793.071051) can0 54B#22FF
(1510592793.071180) can0 547#22FF
(1510592793.071310) can0 549#22FF
(1510592793.089244) can0 42C#0060000020000000
(1510592793.089462) can0 43C#0060000020000000
(1510592793.089709) can0 44C#0060000020000000
(1510592793.123797) can0 207#0076800368011400
(1510592793.123959) can0 227#CC0488100600ECD1
(1510592793.124197) can0 237#4541001700000000
(1510592793.124434) can0 247#667D890300002600
(1510592793.124680) can0 717#1300000000000000
(1510592793.125401) can0 209#0077001268011400
(1510592793.125640) can0 20B#0077001368011400
(1510592793.125872) can0 229#CA0401100900ECD1
(1510592793.126106) can0 22B#FF04FF100700ECD1
(1510592793.126348) can0 239#4541001700000000
(1510592793.126587) can0 23B#4541001700000000
(1510592793.126824) can0 249#667D890300002600
(1510592793.127059) can0 24B#667D890300002600
(1510592793.127295) can0 719#1240290027001700
(1510592793.127536) can0 71B#110034F300000000
(1510592793.133554) can0 217#004000007F020000
(1510592793.135209) can0 219#00807E0080020000
(1510592793.135455) can0 21B#0040000083020000
(1510592793.170792) can0 45C#0000093E00000000
(1510592793.189223) can0 42C#0060000020000000
(1510592793.189464) can0 43C#0060000020000000
(1510592793.189712) can0 44C#0060000020000000
(1510592793.223690) can0 207#0076000368011400
(1510592793.223926) can0 227#CF048B100700ECD1
(1510592793.224165) can0 237#4541001700000000
(1510592793.224402) can0 247#667D890300002600
(1510592793.224637) can0 717#140000007E280000
(1510592793.225350) can0 209#0077001268011400
(1510592793.225589) can0 20B#0077001368011400
(1510592793.225821) can0 229#D00402100F00ECD1
(1510592793.226054) can0 22B#FF04FD100900ECD1
(1510592793.226295) can0 239#4541001700000000
(1510592793.226538) can0 23B#4541001700000000
(1510592793.226772) can0 249#667D890300002600
(1510592793.227009) can0 24B#667D890300002600
(1510592793.227255) can0 719#1300000000000000
(1510592793.227494) can0 71B#1240290027001600
(1510592793.233526) can0 217#004000007F020000
(1510592793.235161) can0 219#00807E0080020000
(1510592793.235406) can0 21B#0040000083020000
(1510592793.270788) can0 45C#0000093E00000000
(1510592793.270910) can0 10C#2300
(1510592793.271063) can0 549#23FF
(1510592793.271192) can0 547#23FF
(1510592793.271326) can0 54B#23FF
(1510592793.289223) can0 42C#0060000020000000
(1510592793.289465) can0 43C#0060000020000000
(1510592793.289713) can0 44C#0060000020000000
(1510592793.323667) can0 207#0076000368011400
(1510592793.323890) can0 227#D0048A101100ECD1
(1510592793.324130) can0 237#4541001700000000
(1510592793.324364) can0 247#667D890300002600
(1510592793.325353) can0 209#0077C01168011400
(1510592793.325592) can0 20B#0077001368011400
(1510592793.325822) can0 229#CD04FD0F0700ECD1
(1510592793.326059) can0 22B#0405FC100500ECD1
(1510592793.326299) can0 239#4541001700000000
(1510592793.326540) can0 23B#4541001700000000
(1510592793.326773) can0 249#667D890300002600
(1510592793.327010) can0 24B#667D890300002600
(1510592793.327252) can0 719#140000002C2C0000
(1510592793.327504) can0 71B#1300000000000000
(1510592793.333518) can0 217#004000007F020000
(1510592793.335273) can0 219#00807E0080020000
(1510592793.335404) can0 21B#0040000083020000
(1510592793.370850) can0 45C#0000093E00000000
(1510592793.389266) can0 42C#0060000020000000
(1510592793.389467) can0 43C#0060000020000000
(1510592793.389713) can0 44C#0060000020000000
(1510592793.423693) can0 207#0076000368011400
(1510592793.423916) can0 227#D00489100200ECD1
(1510592793.424139) can0 237#4641001700000000
(1510592793.424381) can0 247#667D890300002600
(1510592793.424604) can0 717#1600000000001D99
(1510592793.425323) can0 209#0077C01168011400
(1510592793.425559) can0 20B#0077C01268011400
(1510592793.425822) can0 229#D904FA0F0B00ECD1
(1510592793.426026) can0 22B#0705FD100C00ECD1
(1510592793.426265) can0 239#4541001700000000
(1510592793.426503) can0 23B#4541001700000000
(1510592793.426739) can0 249#667D890300002600
(1510592793.426980) can0 24B#667D890300002600
(1510592793.427234) can0 71B#14000000F42B0000
(1510592793.433503) can0 217#004000007F020000
(1510592793.435158) can0 219#00807E0080020000
(1510592793.435403) can0 21B#0040000083020000
(1510592793.470837) can0 45C#0000093E00000000
(1510592793.470923) can0 10C#2400
(1510592793.471070) can0 547#24FF
(1510592793.471206) can0 549#24FF
(1510592793.471345) can0 54B#24FF
(1510592793.489263) can0 42C#0060000020000000
(1510592793.489488) can0 43C#0060000020000000
(1510592793.489718) can0 44C#0060000020000000
(1510592793.523654) can0 207#0076C00268011400
(1510592793.523854) can0 227#D40480100500ECD1
(1510592793.524089) can0 237#4541001700000000
(1510592793.524322) can0 247#667D890300002600
(1510592793.524564) can0 717#1700004001002001
(1510592793.525297) can0 209#0077C01168011400
(1510592793.525537) can0 20B#0077001368011400
(1510592793.525766) can0 229#E40406101700ECD1
(1510592793.525999) can0 22B#0505FB100500ECD1
(1510592793.526239) can0 239#4541001700000000
(1510592793.526479) can0 23B#4541001700000000
(1510592793.526714) can0 249#667D890300002600
(1510592793.526950) can0 24B#667D890300002600
(1510592793.527195) can0 719#1600000000006588
(1510592793.533434) can0 217#004000007F020000
(1510592793.535101) can0 219#00807E0080020000
(1510592793.535346) can0 21B#0040000083020000
(1510592793.570797) can0 45C#0000093E00000000
(1510592793.589230) can0 42C#0060000020000000
(1510592793.589473) can0 43C#0060000020000000
(1510592793.589720) can0 44C#0060000020000000
(1510592793.623540) can0 367#0000000000000000
(1510592793.623756) can0 207#0076C00268011400
(1510592793.623984) can0 227#D80484100A00ECD1
(1510592793.624229) can0 237#4541001700000000
(1510592793.624458) can0 247#667D890300002600
(1510592793.624693) can0 717#1800660600000000
(1510592793.625308) can0 209#0077C01168011400
(1510592793.625539) can0 20B#0077C01268011400
(1510592793.625766) can0 229#DC0403100900ECD1
(1510592793.625999) can0 22B#0705FA101500ECD1
(1510592793.626238) can0 239#4541001700000000
(1510592793.626478) can0 23B#4541001700000000
(1510592793.626714) can0 249#667D890300002600
(1510592793.626950) can0 24B#667D890300002600
(1510592793.627198) can0 719#1700036001005001
(1510592793.627467) can0 71B#160000000000458A
(1510592793.633439) can0 217#004000007F020000
(1510592793.633683) can0 377#0000000000000000
(1510592793.635100) can0 219#00807E0080020000
(1510592793.635346) can0 21B#0040000083020000
(1510592793.643529) can0 347#0000000000000000
(1510592793.653516) can0 357#0000000000000000
(1510592793.663515) can0 327#0000000000000000
(1510592793.670793) can0 45C#0000093E00000000
(1510592793.670920) can0 10C#2500
(1510592793.671069) can0 547#25FF
(1510592793.671199) can0 549#25FF
(1510592793.671329) can0 54B#25FF
(1510592793.673509) can0 337#0000000000000000
(1510592793.689234) can0 42C#0060000020000000
(1510592793.689473) can0 43C#0060000020000000
(1510592793.689721) can0 44C#0060000020000000
(1510592793.723575) can0 207#0076400268011400
(1510592793.723800) can0 227#DC0489100800ECD1
(1510592793.724040) can0 237#4541001700000000
(1510592793.724274) can0 247#667D890300002600
(1510592793.724521) can0 717#1900000000000000
(1510592793.725169) can0 369#0000000000000000
(1510592793.725409) can0 209#0077801168011400
(1510592793.725653) can0 20B#0077C01268011400
(1510592793.725885) can0 229#E20407100500ECD1
(1510592793.726118) can0 22B#140500111100ECD1
(1510592793.726358) can0 239#4541001700000000
(1510592793.726599) can0 23B#4541001700000000
(1510592793.726834) can0 249#667D890300002600
(1510592793.727070) can0 24B#667D890300002600
(1510592793.727316) can0 719#1800660600000000
(1510592793.727558) can0 71B#1700015001006001
(1510592793.733399) can0 217#004000007F020000
(1510592793.735051) can0 219#00807E0080020000
(1510592793.735296) can0 21B#0040000083020000
(1510592793.735546) can0 379#0000000000000000
(1510592793.745167) can0 349#0000000000000000
(1510592793.755167) can0 359#0000000000000000
(1510592793.765163) can0 329#0000000000000000
(1510592793.770801) can0 45C#0000093E00000000
(1510592793.775160) can0 339#0000000000000000
(1510592793.789234) can0 42C#0060000020000000
(1510592793.789477) can0 43C#0060000020000000
(1510592793.789725) can0 44C#0060000020000000
(1510592793.823556) can0 207#0076400268011400
(1510592793.823781) can0 227#E20486100A00ECD1
(1510592793.824030) can0 237#4541001700000000
(1510592793.824259) can0 247#667D890300002600
(1510592793.824507) can0 717#01000000CC0C6000
(1510592793.825245) can0 209#0077801168011400
(1510592793.825471) can0 229#DE04F70F1200ECD1
(1510592793.825714) can0 20B#0077C01268011400
(1510592793.825947) can0 22B#120500110800ECD1
(1510592793.826193) can0 239#4541001700000000
(1510592793.826431) can0 23B#4541001700000000
(1510592793.826665) can0 249#667D890300002600
(1510592793.826903) can0 24B#667D890300002600
(1510592793.827154) can0 36B#0000000000000000
(1510592793.827416) can0 719#1900000000000000
(1510592793.827646) can0 71B#1800660600000000
(1510592793.833361) can0 217#004000007F020000
(1510592793.835054) can0 219#00807E0080020000
(1510592793.835299) can0 21B#0040000083020000
(1510592793.835547) can0 37B#0000000000000000
(1510592793.845322) can0 34B#0000000000000000
(1510592793.855324) can0 35B#0000000000000000
(1510592793.865318) can0 32B#0000000000000000
(1510592793.870800) can0 45C#0000093E00000000
(1510592793.870932) can0 10C#2600
(1510592793.871083) can0 547#26FF
(1510592793.871203) can0 549#26FF
(1510592793.871344) can0 54B#26FF
(1510592793.875314) can0 33B#0000000000000000
(1510592793.889240) can0 42C#0060000020000000
(1510592793.889480) can0 43C#0060000020000000
(1510592793.889727) can0 44C#0060000020000000
(1510592793.923561) can0 207#0076000268011400
(1510592793.923785) can0 227#E40483100700ECD1
(1510592793.924025) can0 237#4541001700000000
(1510592793.924258) can0 247#667D890300002600
(1510592793.924504) can0 717#0200000000000000
(1510592793.925234) can0 209#0077401168011400
(1510592793.925473) can0 20B#0077401268011400
(1510592793.925703) can0 229#E60409101700ECD1
(1510592793.925941) can0 22B#1205F8100400ECD1
(1510592793.926182) can0 239#4541001700000000
(1510592793.926420) can0 23B#4541001700000000
(1510592793.926656) can0 249#667D890300002600
(1510592793.926891) can0 24B#667D890300002600
(1510592793.927134) can0 719#01000000CC0C6000
(1510592793.927414) can0 71B#1900000000000000
(1510592793.933365) can0 217#004000007F020000
(1510592793.935045) can0 219#00807E0080020000
(1510592793.935289) can0 21B#0040000083020000
(1510592793.970806) can0 45C#0000093E00000000
(1510592793.989238) can0 42C#0060000020000000
(1510592793.989482) can0 43C#0060000020000000
(1510592793.989730) can0 44C#0060000020000000
(1510592794.023511) can0 207#0076C00168011400
(1510592794.023745) can0 227#E50488101000ECD1
(1510592794.023981) can0 237#4541001700000000
(1510592794.024222) can0 247#667D890300002600
(1510592794.025192) can0 209#0077401168011400
(1510592794.025425) can0 20B#0077801268011400
(1510592794.025658) can0 229#F10414101B00ECD1
(1510592794.025893) can0 22B#1805FC100300ECD1
(1510592794.026133) can0 239#4541001700000000
(1510592794.026372) can0 23B#4541001700000000
(1510592794.026608) can0 249#667D890300002600
(1510592794.026844) can0 24B#667D890300002600
(1510592794.027092) can0 719#0200000000000000
(1510592794.027333) can0 71B#01000000CC0C6000
(1510592794.033331) can0 217#004000007F020000
(1510592794.034998) can0 219#00807E0080020000
(1510592794.035240) can0 21B#0040000083020000
(1510592794.070808) can0 45C#0000093E00000000
(1510592794.070934) can0 10C#2700
(1510592794.071094) can0 54B#27FF
(1510592794.071222) can0 547#27FF
(1510592794.071363) can0 549#27FF
(1510592794.089248) can0 42C#0060000020000000
(1510592794.089486) can0 43C#0060000020000000
(1510592794.089734) can0 44C#0060000020000000
(1510592794.123533) can0 207#0076000268011400
(1510592794.123747) can0 227#EB0489100700ECD1
(1510592794.123970) can0 237#4541001700000000
(1510592794.124203) can0 247#667D890300002600
(1510592794.124441) can0 717#040000000D09BB03
(1510592794.125187) can0 209#0077001168011400
(1510592794.125426) can0 20B#0077401268011400
(1510592794.125662) can0 229#F1040D101000ECD1
(1510592794.125900) can0 22B#1D05FC100800ECD1
(1510592794.126140) can0 239#4541001700000000
(1510592794.126379) can0 23B#4541001700000000
(1510592794.126614) can0 249#667D890300002600
(1510592794.126850) can0 24B#667D890300002600
(1510592794.127098) can0 71B#0200000000000000
(1510592794.133307) can0 217#004000007F020000
(1510592794.134997) can0 219#00807E0080020000
(1510592794.135242) can0 21B#0040000083020000
(1510592794.170808) can0 45C#0000093E00000000
(1510592794.189244) can0 42C#0060000020000000
(1510592794.189486) can0 43C#0060000020000000
(1510592794.189734) can0 44C#0060000020000000
(1510592794.223486) can0 207#0076400168011400
(1510592794.223714) can0 227#EA0487100B00ECD1
(1510592794.223957) can0 237#4541001700000000
(1510592794.224187) can0 247#667D890300002600
(1510592794.224433) can0 717#0500000000000000
(1510592794.225166) can0 209#0077C01068011400
(1510592794.225401) can0 20B#0077001268011400
(1510592794.225630) can0 229#F20407100B00ECD1
(1510592794.225884) can0 22B#1C05FE100A00ECD1
(1510592794.226103) can0 239#4541001700000000
(1510592794.226341) can0 23B#4541001700000000
(1510592794.226576) can0 249#667D890300002600
(1510592794.226812) can0 24B#667D890300002600
(1510592794.227051) can0 719#040000000D096B04
(1510592794.233301) can0 217#004000007F020000
(1510592794.234977) can0 219#00807E0080020000
(1510592794.235221) can0 21B#0040000083020000
(1510592794.270813) can0 45C#0000093E00000000
(1510592794.270941) can0 10C#2800
(1510592794.271093) can0 547#28FF
(1510592794.271216) can0 549#28FF
(1510592794.271347) can0 54B#28FF
(1510592794.289252) can0 42C#0060000020000000
(1510592794.289490) can0 43C#0060000020000000
(1510592794.289738) can0 44C#0060000020000000
(1510592794.323450) can0 207#0076800168011400
(1510592794.323676) can0 227#F70484101000ECD1
(1510592794.323916) can0 237#4541001700000000
(1510592794.324149) can0 247#667D890300002600
(1510592794.324391) can0 717#0600000099010040
(1510592794.325141) can0 209#0077C01068011400
(1510592794.325384) can0 20B#0077001268011400
(1510592794.325615) can0 229#F8040A100E00ECD1
(1510592794.325850) can0 22B#2305FF100C00ECD1
(1510592794.326090) can0 239#4541001700000000
(1510592794.326329) can0 23B#4541001700000000
(1510592794.326565) can0 249#667D890300002600
(1510592794.326801) can0 24B#667D890300002600
(1510592794.327047) can0 719#0500000000000000
(1510592794.327289) can0 71B#040000000D096604
(1510592794.333259) can0 217#004000007F020000
(1510592794.334938) can0 219#00807E0080020000
(1510592794.335183) can0 21B#0040000083020000
(1510592794.370818) can0 45C#0000093E00000000
(1510592794.389249) can0 42C#0060000020000000
(1510592794.389493) can0 43C#0060000020000000
(1510592794.389741) can0 44C#0060000020000000
(1510592794.423446) can0 207#0076400168011400
(1510592794.423683) can0 227#F2048C100900ECD1
(1510592794.423922) can0 237#4541001700000000
(1510592794.424154) can0 247#667D890300002600
(1510592794.424396) can0 717#0700000002260000
(1510592794.425142) can0 209#0077C01068011400
(1510592794.425381) can0 20B#0077C01168011400
(1510592794.425619) can0 229#000511101700ECD1
(1510592794.425844) can0 22B#250502110D00ECD1
(1510592794.426090) can0 239#4541001700000000
(1510592794.426327) can0 23B#4541001700000000
(1510592794.426562) can0 249#667D890300002600
(1510592794.426796) can0 24B#667D890300002600
(1510592794.427038) can0 719#0600000099010040
(1510592794.427285) can0 71B#0500000000000000
(1510592794.433252) can0 217#004000007F020000
(1510592794.434937) can0 219#00807E0080020000
(1510592794.435182) can0 21B#0040000083020000
(1510592794.470817) can0 45C#0000093E00000000
(1510592794.470946) can0 10C#2900
(1510592794.471096) can0 549#29FF
(1510592794.471224) can0 547#29FF
(1510592794.471353) can0 54B#29FF
(1510592794.489254) can0 42C#0060000020000000
(1510592794.489497) can0 43C#0060000020000000
(1510592794.489745) can0 44C#0060000020000000
(1510592794.523403) can0 207#0076C00068011400
(1510592794.523630) can0 227#F9048E100700ECD1
(1510592794.523869) can0 237#4541001700000000
(1510592794.524102) can0 247#667D890300002600
(1510592794.524348) can0 717#0800000000000000
(1510592794.525090) can0 209#0077801068011400
(1510592794.525335) can0 20B#0077C01168011400
(1510592794.525566) can0 229#F60408101700ECD1
(1510592794.525802) can0 22B#2405FD100C00ECD1
(1510592794.526042) can0 239#4541001700000000
(1510592794.526279) can0 23B#4541001700000000
(1510592794.526515) can0 249#667D890300002600
(1510592794.526752) can0 24B#667D890300002600
(1510592794.526994) can0 719#0700000002260000
(1510592794.527238) can0 71B#0600000099010040
(1510592794.533235) can0 217#004000007F020000
(1510592794.534888) can0 219#00807E0080020000
(1510592794.535133) can0 21B#0040000083020000
(1510592794.570820) can0 45C#0000093E00000000
(1510592794.589254) can0 42C#0060000020000000
(1510592794.589497) can0 43C#0060000020000000
(1510592794.589746) can0 44C#0060000020000000
(1510592794.623325) can0 367#0000000000000000
(1510592794.623536) can0 207#0076C00068011400
(1510592794.623763) can0 227#F4048F100900ECD1
(1510592794.624008) can0 237#4541001700000000
(1510592794.624241) can0 247#667D890300002600
(1510592794.624486) can0 717#0900000000000000
(1510592794.625108) can0 209#0077801068011400
(1510592794.625344) can0 20B#0077C01168011400
(1510592794.625577) can0 229#01050C101200ECD1
(1510592794.625808) can0 22B#2C0509111F00ECD1
(1510592794.626046) can0 239#4541001700000000
(1510592794.626285) can0 23B#4541001700000000
(1510592794.626528) can0 249#667D890300002600
(1510592794.626759) can0 24B#667D890300002600
(1510592794.627009) can0 719#0800000000000000
(1510592794.627254) can0 71B#0700000002260000
(1510592794.633197) can0 217#004000007F020000
(1510592794.633439) can0 377#0000000000000000
(1510592794.634894) can0 219#00807E0080020000
(1510592794.635139) can0 21B#0040000083020000
(1510592794.643286) can0 347#0000000000000000
(1510592794.653289) can0 357#0000000000000000
(1510592794.663304) can0 327#0000000000000000
(1510592794.670820) can0 45C#0000093E00000000
(1510592794.670950) can0 10C#2A00
(1510592794.671102) can0 54B#2AFF
(1510592794.671231) can0 547#2AFF
(1510592794.671371) can0 549#2AFF
(1510592794.673294) can0 337#0000000000000000
(1510592794.689259) can0 42C#0060000020000000
(1510592794.689502) can0 43C#0060000020000000
(1510592794.689750) can0 44C#0060000020000000
(1510592794.723392) can0 207#0076C00068011400
(1510592794.723621) can0 227#01058C100300ECD1
(1510592794.723861) can0 237#4541001700000000
(1510592794.724095) can0 247#667D890300002600
(1510592794.724341) can0 717#0A00000000000000
(1510592794.724972) can0 369#0000000000000000
(1510592794.725213) can0 209#0077401068011400
(1510592794.725455) can0 20B#0077801168011400
(1510592794.725686) can0 229#07050C101500ECD1
(1510592794.725918) can0 22B#320508111100ECD1
(1510592794.726158) can0 239#4541001700000000
(1510592794.726397) can0 23B#4541001700000000
(1510592794.726632) can0 249#667D890300002600
(1510592794.726868) can0 24B#667D890300002600
(1510592794.727115) can0 719#0900000000000000
(1510592794.727403) can0 71B#0800000000000000
(1510592794.733197) can0 217#004000007F020000
(1510592794.734872) can0 219#00807E0080020000
(1510592794.735116) can0 21B#0040000083020000
(1510592794.735366) can0 379#0000000000000000
(1510592794.744969) can0 349#0000000000000000
(1510592794.754967) can0 359#0000000000000000
(1510592794.764970) can0 329#0000000000000000
(1510592794.770828) can0 45C#0000093E00000000
(1510592794.774959) can0 339#0000000000000000
(1510592794.789260) can0 42C#0060000020000000
(1510592794.789504) can0 43C#0060000020000000
(1510592794.789751) can0 44C#0060000020000000
(1510592794.823335) can0 207#0076800068011400
(1510592794.823567) can0 227#F9048D100600ECD1
(1510592794.823810) can0 237#4541001700000000
(1510592794.824043) can0 247#667D890300002600
(1510592794.824291) can0 717#0B00000000000000
(1510592794.825026) can0 209#0077401068011400
(1510592794.825254) can0 229#070508100A00ECD1
(1510592794.825494) can0 20B#0077801168011400
(1510592794.825732) can0 22B#2F050A110800ECD1
(1510592794.825965) can0 239#4541001700000000
(1510592794.826204) can0 23B#4541001700000000
(1510592794.826438) can0 249#667D890300002600
(1510592794.826675) can0 24B#667D890300002600
(1510592794.826928) can0 36B#0000000000000000
(1510592794.827168) can0 719#0A00000000000000
(1510592794.827428) can0 71B#0900000000000000
(1510592794.833147) can0 217#004000007F020000
(1510592794.834830) can0 219#00807E0080020000
(1510592794.835076) can0 21B#0040000083020000
(1510592794.835323) can0 37B#0000000000000000
(1510592794.845114) can0 34B#0000000000000000
(1510592794.855112) can0 35B#0000000000000000
(1510592794.865124) can0 32B#0000000000000000
(1510592794.870826) can0 45C#0000093E00000000
(1510592794.870954) can0 10C#2B00
(1510592794.871105) can0 547#2BFF
(1510592794.871239) can0 549#2BFF
(1510592794.871370) can0 54B#2BFF
(1510592794.875117) can0 33B#0000000000000000
(1510592794.889269) can0 42C#0060000020000000
(1510592794.889508) can0 43C#0060000020000000
(1510592794.889756) can0 44C#0060000020000000
(1510592794.923341) can0 207#0076800068011400
(1510592794.923564) can0 227#FF0489100700ECD1
(1510592794.923806) can0 237#4541001700000000
(1510592794.924038) can0 247#667D890300002600
(1510592794.924280) can0 717#0C00000000060100
(1510592794.925026) can0 209#0077001068011400
(1510592794.925264) can0 20B#0077401168011400
(1510592794.925497) can0 229#0D0510101100ECD1
(1510592794.925726) can0 22B#36050A110A00ECD1
(1510592794.925966) can0 239#4541001700000000
(1510592794.926205) can0 23B#4541001700000000
(1510592794.926440) can0 249#667D890300002600
(1510592794.926676) can0 24B#667D890300002600
(1510592794.926923) can0 719#0B00000000000000
(1510592794.927170) can0 71B#0A00000000000000
(1510592794.933139) can0 217#004000007F020000
(1510592794.934833) can0 219#00807E0080020000
(1510592794.935078) can0 21B#0040000083020000
(1510592794.970834) can0 45C#0000093E00000000
(1510592794.989267) can0 42C#0060000020000000
(1510592794.989511) can0 43C#0060000020000000
(1510592794.989758) can0 44C#0060000020000000
(1510592795.023298) can0 207#0076000068011400
(1510592795.023527) can0 227#040592100600ECD1
(1510592795.023768) can0 237#4541001700000000
(1510592795.024001) can0 247#667D890300002600
(1510592795.024245) can0 717#0E000002C6200000
(1510592795.025002) can0 209#0077C00F68011400
(1510592795.025227) can0 20B#0077401168011400
(1510592795.025457) can0 229#0E0510100900ECD1
(1510592795.025690) can0 22B#3A050A110600ECD1
(1510592795.025937) can0 239#4541001700000000
(1510592795.026170) can0 23B#4541001700000000
(1510592795.026405) can0 249#667D890300002600
(1510592795.026641) can0 24B#667D890300002600
(1510592795.026884) can0 719#0C00000000060100
(1510592795.027132) can0 71B#0B00000000000000
(1510592795.033126) can0 217#004000007F020000
(1510592795.034795) can0 219#00807E0080020000
(1510592795.035040) can0 21B#0040000083020000
(1510592795.070836) can0 45C#0000093E00000000
(1510592795.070963) can0 10C#2C00
(1510592795.071116) can0 547#2CFF
(1510592795.071242) can0 549#2CFF
(1510592795.071374) can0 54B#2CFF
(1510592795.089275) can0 42C#0060000020000000
(1510592795.089514) can0 43C#0060000020000000
(1510592795.089761) can0 44C#0060000020000000
(1510592795.123300) can0 207#0076000068011400
(1510592795.123504) can0 227#070586100400ECD1
(1510592795.123744) can0 237#4541001700000000
(1510592795.123977) can0 247#667D890300002600
(1510592795.124215) can0 717#0F00C701090C0000
(1510592795.124989) can0 209#0077C00F68011400
(1510592795.125226) can0 20B#0077401168011400
(1510592795.125459) can0 229#13050C101000ECD1
(1510592795.125691) can0 22B#42050C110700ECD1
(1510592795.125930) can0 239#4541001700000000
(1510592795.126169) can0 23B#4541001700000000
(1510592795.126405) can0 249#667D890300002600
(1510592795.126641) can0 24B#667D890300002600
(1510592795.126881) can0 719#0E000002C6200000
(1510592795.127128) can0 71B#0C00000000060100
(1510592795.133084) can0 217#004000007F020000
(1510592795.134798) can0 219#00807E0080020000
(1510592795.135042) can0 21B#0040000083020000
(1510592795.170839) can0 45C#0000093E00000000
(1510592795.189273) can0 42C#0060000020000000
(1510592795.189515) can0 43C#0060000020000000
(1510592795.189763) can0 44C#0060000020000000
(1510592795.223275) can0 207#0076000068011400
(1510592795.223506) can0 227#0A058D100800ECD1
(1510592795.223750) can0 237#4541001700000000
(1510592795.223986) can0 247#667D890300002600
(1510592795.224226) can0 717#1003000017000000
(1510592795.224958) can0 209#0077C00F68011400
(1510592795.225188) can0 20B#0077001168011400
(1510592795.225422) can0 229#130510100D00ECD1
(1510592795.225654) can0 22B#3E0505110900ECD1
(1510592795.225907) can0 239#4541001700000000
(1510592795.226135) can0 23B#4541001700000000
(1510592795.226369) can0 249#667D890300002600
(1510592795.226605) can0 24B#667D890300002600
(1510592795.226841) can0 719#0F00C701E70E0000
(1510592795.227084) can0 71B#0E000002C6200000
(1510592795.233087) can0 217#004000007F020000
(1510592795.234765) can0 219#00807E0080020000
(1510592795.235010) can0 21B#0040000083020000
(1510592795.270839) can0 45C#0000093E00000000
(1510592795.270967) can0 10C#2D00
(1510592795.271116) can0 549#2DFF
(1510592795.271245) can0 547#2DFF
(1510592795.271374) can0 54B#2DFF
(1510592795.289279) can0 42C#0060000020000000
(1510592795.289517) can0 43C#0060000020000000
(1510592795.289765) can0 44C#0060000020000000
(1510592795.323227) can0 207#007680FF68011400
(1510592795.323452) can0 227#0A058D100F00ECD1
(1510592795.323691) can0 237#4541001700000000
(1510592795.323924) can0 247#667D890300002600
(1510592795.324164) can0 717#11008AF300000000
(1510592795.324923) can0 209#0077800F68011400
(1510592795.325163) can0 20B#0077001168011400
(1510592795.325396) can0 229#1C050C100E00ECD1
(1510592795.325628) can0 22B#470506110900ECD1
(1510592795.325867) can0 239#4541001700000000
(1510592795.326106) can0 23B#4541001700000000
(1510592795.326342) can0 249#667D890300002600
(1510592795.326578) can0 24B#667D890300002600
(1510592795.326818) can0 719#10F40F0017000000
(1510592795.327056) can0 71B#0F00C701CF0B0000
(1510592795.333037) can0 217#004000007F020000
